rm -f results.xml
make -f Makefile results.xml
make[1]: Entering directory '/home/jueun/park/PIM_Model/AXI/verilog-axi-master/tb/axi_pim'
rm -f results.xml
MODULE=test_axi_pim TESTCASE= TOPLEVEL=axi_pim TOPLEVEL_LANG=verilog \
         /usr/bin/vvp -M /home/jueun/.local/lib/python3.10/site-packages/cocotb/libs -m libcocotbvpi_icarus   sim_build/sim.vvp -fst
     -.--ns INFO     gpi                                ..mbed/gpi_embed.cpp:76   in set_program_name_in_venv        Did not detect Python virtual environment. Using system-wide Python interpreter
     -.--ns INFO     gpi                                ../gpi/GpiCommon.cpp:101  in gpi_print_registered_impl       VPI registered
     0.00ns INFO     cocotb                             Running on Icarus Verilog version 11.0 (stable)
     0.00ns INFO     cocotb                             Running tests with cocotb v1.8.1 from /home/jueun/.local/lib/python3.10/site-packages/cocotb
     0.00ns INFO     cocotb                             Seeding Python random module with 1715967687
     0.00ns INFO     cocotb.regression                  Found test test_axi_pim.run_test_write_001
     0.00ns INFO     cocotb.regression                  Found test test_axi_pim.run_test_write_002
     0.00ns INFO     cocotb.regression                  Found test test_axi_pim.run_test_write_003
     0.00ns INFO     cocotb.regression                  Found test test_axi_pim.run_test_write_004
     0.00ns INFO     cocotb.regression                  Found test test_axi_pim.run_test_write_005
     0.00ns INFO     cocotb.regression                  Found test test_axi_pim.run_test_write_006
     0.00ns INFO     cocotb.regression                  Found test test_axi_pim.run_test_write_007
     0.00ns INFO     cocotb.regression                  Found test test_axi_pim.run_test_write_008
     0.00ns INFO     cocotb.regression                  Found test test_axi_pim.run_test_write_009
     0.00ns INFO     cocotb.regression                  Found test test_axi_pim.run_test_write_010
     0.00ns INFO     cocotb.regression                  Found test test_axi_pim.run_test_write_011
     0.00ns INFO     cocotb.regression                  Found test test_axi_pim.run_test_write_012
     0.00ns INFO     cocotb.regression                  Found test test_axi_pim.run_test_read_001
     0.00ns INFO     cocotb.regression                  Found test test_axi_pim.run_test_read_002
     0.00ns INFO     cocotb.regression                  Found test test_axi_pim.run_test_read_003
     0.00ns INFO     cocotb.regression                  Found test test_axi_pim.run_test_read_004
     0.00ns INFO     cocotb.regression                  Found test test_axi_pim.run_test_read_005
     0.00ns INFO     cocotb.regression                  Found test test_axi_pim.run_test_read_006
     0.00ns INFO     cocotb.regression                  Found test test_axi_pim.run_test_read_007
     0.00ns INFO     cocotb.regression                  Found test test_axi_pim.run_test_read_008
     0.00ns INFO     cocotb.regression                  Found test test_axi_pim.run_test_read_009
     0.00ns INFO     cocotb.regression                  Found test test_axi_pim.run_test_read_010
     0.00ns INFO     cocotb.regression                  Found test test_axi_pim.run_test_read_011
     0.00ns INFO     cocotb.regression                  Found test test_axi_pim.run_test_read_012
     0.00ns INFO     cocotb.regression                  Found test test_axi_pim.run_stress_test_001
     0.00ns INFO     cocotb.regression                  running run_test_write_001 (1/25)
                                                          Automatically generated test
                                                          
                                                          idle_inserter: None
                                                          backpressure_inserter: None
                                                          size: None
     0.00ns INFO     cocotb.axi_pim.s_axi               AXI master (write)
     0.00ns INFO     cocotb.axi_pim.s_axi               cocotbext-axi version 0.1.24
     0.00ns INFO     cocotb.axi_pim.s_axi               Copyright (c) 2020 Alex Forencich
     0.00ns INFO     cocotb.axi_pim.s_axi               https://github.com/alexforencich/cocotbext-axi
     0.00ns INFO     cocotb.axi_pim.s_axi               Reset de-asserted
     0.00ns INFO     cocotb.axi_pim.s_axi               Reset de-asserted
     0.00ns INFO     cocotb.axi_pim.s_axi               Reset de-asserted
     0.00ns INFO     cocotb.axi_pim.s_axi               AXI master configuration:
     0.00ns INFO     cocotb.axi_pim.s_axi                 Address width: 8 bits
     0.00ns INFO     cocotb.axi_pim.s_axi                 ID width: 8 bits
     0.00ns INFO     cocotb.axi_pim.s_axi                 Byte size: 8 bits
     0.00ns INFO     cocotb.axi_pim.s_axi                 Data width: 32 bits (4 bytes)
     0.00ns INFO     cocotb.axi_pim.s_axi                 Max burst size: 2 (4 bytes)
     0.00ns INFO     cocotb.axi_pim.s_axi                 Max burst length: 256 cycles (1024 bytes)
     0.00ns INFO     cocotb.axi_pim.s_axi               AXI master signals:
     0.00ns INFO     cocotb.axi_pim.s_axi                 awaddr width: 8 bits
     0.00ns INFO     cocotb.axi_pim.s_axi                 awburst width: 2 bits
     0.00ns INFO     cocotb.axi_pim.s_axi                 awcache width: 4 bits
     0.00ns INFO     cocotb.axi_pim.s_axi                 awid width: 8 bits
     0.00ns INFO     cocotb.axi_pim.s_axi                 awlen width: 8 bits
     0.00ns INFO     cocotb.axi_pim.s_axi                 awlock width: 1 bits
     0.00ns INFO     cocotb.axi_pim.s_axi                 awprot width: 3 bits
     0.00ns INFO     cocotb.axi_pim.s_axi                 awqos: not present
     0.00ns INFO     cocotb.axi_pim.s_axi                 awready width: 1 bits
     0.00ns INFO     cocotb.axi_pim.s_axi                 awregion: not present
     0.00ns INFO     cocotb.axi_pim.s_axi                 awsize width: 3 bits
     0.00ns INFO     cocotb.axi_pim.s_axi                 awuser: not present
     0.00ns INFO     cocotb.axi_pim.s_axi                 awvalid width: 1 bits
     0.00ns INFO     cocotb.axi_pim.s_axi                 wdata width: 32 bits
     0.00ns INFO     cocotb.axi_pim.s_axi                 wlast width: 1 bits
     0.00ns INFO     cocotb.axi_pim.s_axi                 wready width: 1 bits
     0.00ns INFO     cocotb.axi_pim.s_axi                 wstrb width: 4 bits
     0.00ns INFO     cocotb.axi_pim.s_axi                 wuser: not present
     0.00ns INFO     cocotb.axi_pim.s_axi                 wvalid width: 1 bits
     0.00ns INFO     cocotb.axi_pim.s_axi                 bid width: 8 bits
     0.00ns INFO     cocotb.axi_pim.s_axi                 bready width: 1 bits
     0.00ns INFO     cocotb.axi_pim.s_axi                 bresp width: 2 bits
     0.00ns INFO     cocotb.axi_pim.s_axi                 buser: not present
     0.00ns INFO     cocotb.axi_pim.s_axi                 bvalid width: 1 bits
     0.00ns INFO     cocotb.axi_pim.s_axi               Reset de-asserted
     0.00ns INFO     cocotb.axi_pim.s_axi               AXI master (read)
     0.00ns INFO     cocotb.axi_pim.s_axi               cocotbext-axi version 0.1.24
     0.00ns INFO     cocotb.axi_pim.s_axi               Copyright (c) 2020 Alex Forencich
     0.00ns INFO     cocotb.axi_pim.s_axi               https://github.com/alexforencich/cocotbext-axi
     0.00ns INFO     cocotb.axi_pim.s_axi               Reset de-asserted
     0.00ns INFO     cocotb.axi_pim.s_axi               Reset de-asserted
     0.00ns INFO     cocotb.axi_pim.s_axi               AXI master configuration:
     0.00ns INFO     cocotb.axi_pim.s_axi                 Address width: 8 bits
     0.00ns INFO     cocotb.axi_pim.s_axi                 ID width: 8 bits
     0.00ns INFO     cocotb.axi_pim.s_axi                 Byte size: 8 bits
     0.00ns INFO     cocotb.axi_pim.s_axi                 Data width: 32 bits (4 bytes)
     0.00ns INFO     cocotb.axi_pim.s_axi                 Max burst size: 2 (4 bytes)
     0.00ns INFO     cocotb.axi_pim.s_axi                 Max burst length: 256 cycles (1024 bytes)
     0.00ns INFO     cocotb.axi_pim.s_axi               AXI master signals:
     0.00ns INFO     cocotb.axi_pim.s_axi                 araddr width: 8 bits
     0.00ns INFO     cocotb.axi_pim.s_axi                 arburst width: 2 bits
     0.00ns INFO     cocotb.axi_pim.s_axi                 arcache width: 4 bits
     0.00ns INFO     cocotb.axi_pim.s_axi                 arid width: 8 bits
     0.00ns INFO     cocotb.axi_pim.s_axi                 arlen width: 8 bits
     0.00ns INFO     cocotb.axi_pim.s_axi                 arlock width: 1 bits
     0.00ns INFO     cocotb.axi_pim.s_axi                 arprot width: 3 bits
     0.00ns INFO     cocotb.axi_pim.s_axi                 arqos: not present
     0.00ns INFO     cocotb.axi_pim.s_axi                 arready width: 1 bits
     0.00ns INFO     cocotb.axi_pim.s_axi                 arregion: not present
     0.00ns INFO     cocotb.axi_pim.s_axi                 arsize width: 3 bits
     0.00ns INFO     cocotb.axi_pim.s_axi                 aruser: not present
     0.00ns INFO     cocotb.axi_pim.s_axi                 arvalid width: 1 bits
     0.00ns INFO     cocotb.axi_pim.s_axi                 rdata width: 32 bits
     0.00ns INFO     cocotb.axi_pim.s_axi                 rid width: 8 bits
     0.00ns INFO     cocotb.axi_pim.s_axi                 rlast width: 1 bits
     0.00ns INFO     cocotb.axi_pim.s_axi                 rready width: 1 bits
     0.00ns INFO     cocotb.axi_pim.s_axi                 rresp width: 2 bits
     0.00ns INFO     cocotb.axi_pim.s_axi                 ruser: not present
     0.00ns INFO     cocotb.axi_pim.s_axi                 rvalid width: 1 bits
     0.00ns INFO     cocotb.axi_pim.s_axi               Reset de-asserted
     0.00ns INFO     cocotb.axi_pim.s_axi               Reset asserted
     0.00ns INFO     cocotb.axi_pim.s_axi               Reset asserted
     0.00ns INFO     cocotb.axi_pim.s_axi               Reset asserted
     0.00ns INFO     cocotb.axi_pim.s_axi               Reset asserted
     0.00ns INFO     cocotb.axi_pim.s_axi               Reset asserted
     0.00ns INFO     cocotb.axi_pim.s_axi               Reset asserted
     0.00ns INFO     cocotb.axi_pim.s_axi               Reset asserted
    10.00ns INFO     cocotb.axi_pim.s_axi               Reset de-asserted
    10.00ns INFO     cocotb.axi_pim.s_axi               Reset de-asserted
    10.00ns INFO     cocotb.axi_pim.s_axi               Reset de-asserted
    10.00ns INFO     cocotb.axi_pim.s_axi               Reset de-asserted
    10.00ns INFO     cocotb.axi_pim.s_axi               Reset de-asserted
    10.00ns INFO     cocotb.axi_pim.s_axi               Reset de-asserted
    10.00ns INFO     cocotb.axi_pim.s_axi               Reset de-asserted
    30.00ns INFO     cocotb.tb                          length 1, offset 4, size 2
    30.00ns INFO     cocotb.regression                  run_test_write_001 failed
                                                        Traceback (most recent call last):
                                                          File "/home/jueun/.local/lib/python3.10/site-packages/cocotb/regression.py", line 732, in _my_test
                                                            await function(dut, *args, **kwargs)
                                                          File "/home/jueun/park/PIM_Model/AXI/verilog-axi-master/tb/axi_pim/test_axi_pim.py", line 97, in run_test_write
                                                            await tb.axi_master.write(addr-4, b'\xaa'*(length+8))
                                                          File "/home/jueun/.local/lib/python3.10/site-packages/cocotbext/axi/axi_master.py", line 1071, in write
                                                            return await self.write_if.write(address, data, awid,
                                                          File "/home/jueun/.local/lib/python3.10/site-packages/cocotbext/axi/axi_master.py", line 358, in write
                                                            raise ValueError("Address out of range")
                                                        ValueError: Address out of range
    30.00ns INFO     cocotb.regression                  running run_test_write_002 (2/25)
                                                          Automatically generated test
                                                          
                                                          idle_inserter: None
                                                          backpressure_inserter: None
                                                          size: 0
    30.00ns INFO     cocotb.axi_pim.s_axi               AXI master (write)
    30.00ns INFO     cocotb.axi_pim.s_axi               cocotbext-axi version 0.1.24
    30.00ns INFO     cocotb.axi_pim.s_axi               Copyright (c) 2020 Alex Forencich
    30.00ns INFO     cocotb.axi_pim.s_axi               https://github.com/alexforencich/cocotbext-axi
    30.00ns INFO     cocotb.axi_pim.s_axi               Reset de-asserted
    30.00ns INFO     cocotb.axi_pim.s_axi               Reset de-asserted
    30.00ns INFO     cocotb.axi_pim.s_axi               Reset de-asserted
    30.00ns INFO     cocotb.axi_pim.s_axi               AXI master configuration:
    30.00ns INFO     cocotb.axi_pim.s_axi                 Address width: 8 bits
    30.00ns INFO     cocotb.axi_pim.s_axi                 ID width: 8 bits
    30.00ns INFO     cocotb.axi_pim.s_axi                 Byte size: 8 bits
    30.00ns INFO     cocotb.axi_pim.s_axi                 Data width: 32 bits (4 bytes)
    30.00ns INFO     cocotb.axi_pim.s_axi                 Max burst size: 2 (4 bytes)
    30.00ns INFO     cocotb.axi_pim.s_axi                 Max burst length: 256 cycles (1024 bytes)
    30.00ns INFO     cocotb.axi_pim.s_axi               AXI master signals:
    30.00ns INFO     cocotb.axi_pim.s_axi                 awaddr width: 8 bits
    30.00ns INFO     cocotb.axi_pim.s_axi                 awburst width: 2 bits
    30.00ns INFO     cocotb.axi_pim.s_axi                 awcache width: 4 bits
    30.00ns INFO     cocotb.axi_pim.s_axi                 awid width: 8 bits
    30.00ns INFO     cocotb.axi_pim.s_axi                 awlen width: 8 bits
    30.00ns INFO     cocotb.axi_pim.s_axi                 awlock width: 1 bits
    30.00ns INFO     cocotb.axi_pim.s_axi                 awprot width: 3 bits
    30.00ns INFO     cocotb.axi_pim.s_axi                 awqos: not present
    30.00ns INFO     cocotb.axi_pim.s_axi                 awready width: 1 bits
    30.00ns INFO     cocotb.axi_pim.s_axi                 awregion: not present
    30.00ns INFO     cocotb.axi_pim.s_axi                 awsize width: 3 bits
    30.00ns INFO     cocotb.axi_pim.s_axi                 awuser: not present
    30.00ns INFO     cocotb.axi_pim.s_axi                 awvalid width: 1 bits
    30.00ns INFO     cocotb.axi_pim.s_axi                 wdata width: 32 bits
    30.00ns INFO     cocotb.axi_pim.s_axi                 wlast width: 1 bits
    30.00ns INFO     cocotb.axi_pim.s_axi                 wready width: 1 bits
    30.00ns INFO     cocotb.axi_pim.s_axi                 wstrb width: 4 bits
    30.00ns INFO     cocotb.axi_pim.s_axi                 wuser: not present
    30.00ns INFO     cocotb.axi_pim.s_axi                 wvalid width: 1 bits
    30.00ns INFO     cocotb.axi_pim.s_axi                 bid width: 8 bits
    30.00ns INFO     cocotb.axi_pim.s_axi                 bready width: 1 bits
    30.00ns INFO     cocotb.axi_pim.s_axi                 bresp width: 2 bits
    30.00ns INFO     cocotb.axi_pim.s_axi                 buser: not present
    30.00ns INFO     cocotb.axi_pim.s_axi                 bvalid width: 1 bits
    30.00ns INFO     cocotb.axi_pim.s_axi               Reset de-asserted
    30.00ns INFO     cocotb.axi_pim.s_axi               AXI master (read)
    30.00ns INFO     cocotb.axi_pim.s_axi               cocotbext-axi version 0.1.24
    30.00ns INFO     cocotb.axi_pim.s_axi               Copyright (c) 2020 Alex Forencich
    30.00ns INFO     cocotb.axi_pim.s_axi               https://github.com/alexforencich/cocotbext-axi
    30.00ns INFO     cocotb.axi_pim.s_axi               Reset de-asserted
    30.00ns INFO     cocotb.axi_pim.s_axi               Reset de-asserted
    30.00ns INFO     cocotb.axi_pim.s_axi               AXI master configuration:
    30.00ns INFO     cocotb.axi_pim.s_axi                 Address width: 8 bits
    30.00ns INFO     cocotb.axi_pim.s_axi                 ID width: 8 bits
    30.00ns INFO     cocotb.axi_pim.s_axi                 Byte size: 8 bits
    30.00ns INFO     cocotb.axi_pim.s_axi                 Data width: 32 bits (4 bytes)
    30.00ns INFO     cocotb.axi_pim.s_axi                 Max burst size: 2 (4 bytes)
    30.00ns INFO     cocotb.axi_pim.s_axi                 Max burst length: 256 cycles (1024 bytes)
    30.00ns INFO     cocotb.axi_pim.s_axi               AXI master signals:
    30.00ns INFO     cocotb.axi_pim.s_axi                 araddr width: 8 bits
    30.00ns INFO     cocotb.axi_pim.s_axi                 arburst width: 2 bits
    30.00ns INFO     cocotb.axi_pim.s_axi                 arcache width: 4 bits
    30.00ns INFO     cocotb.axi_pim.s_axi                 arid width: 8 bits
    30.00ns INFO     cocotb.axi_pim.s_axi                 arlen width: 8 bits
    30.00ns INFO     cocotb.axi_pim.s_axi                 arlock width: 1 bits
    30.00ns INFO     cocotb.axi_pim.s_axi                 arprot width: 3 bits
    30.00ns INFO     cocotb.axi_pim.s_axi                 arqos: not present
    30.00ns INFO     cocotb.axi_pim.s_axi                 arready width: 1 bits
    30.00ns INFO     cocotb.axi_pim.s_axi                 arregion: not present
    30.00ns INFO     cocotb.axi_pim.s_axi                 arsize width: 3 bits
    30.00ns INFO     cocotb.axi_pim.s_axi                 aruser: not present
    30.00ns INFO     cocotb.axi_pim.s_axi                 arvalid width: 1 bits
    30.00ns INFO     cocotb.axi_pim.s_axi                 rdata width: 32 bits
    30.00ns INFO     cocotb.axi_pim.s_axi                 rid width: 8 bits
    30.00ns INFO     cocotb.axi_pim.s_axi                 rlast width: 1 bits
    30.00ns INFO     cocotb.axi_pim.s_axi                 rready width: 1 bits
    30.00ns INFO     cocotb.axi_pim.s_axi                 rresp width: 2 bits
    30.00ns INFO     cocotb.axi_pim.s_axi                 ruser: not present
    30.00ns INFO     cocotb.axi_pim.s_axi                 rvalid width: 1 bits
    30.00ns INFO     cocotb.axi_pim.s_axi               Reset de-asserted
    30.00ns INFO     cocotb.axi_pim.s_axi               Reset asserted
    30.00ns INFO     cocotb.axi_pim.s_axi               Reset asserted
    30.00ns INFO     cocotb.axi_pim.s_axi               Reset asserted
    30.00ns INFO     cocotb.axi_pim.s_axi               Reset asserted
    30.00ns INFO     cocotb.axi_pim.s_axi               Reset asserted
    30.00ns INFO     cocotb.axi_pim.s_axi               Reset asserted
    30.00ns INFO     cocotb.axi_pim.s_axi               Reset asserted
    50.00ns INFO     cocotb.axi_pim.s_axi               Reset de-asserted
    50.00ns INFO     cocotb.axi_pim.s_axi               Reset de-asserted
    50.00ns INFO     cocotb.axi_pim.s_axi               Reset de-asserted
    50.00ns INFO     cocotb.axi_pim.s_axi               Reset de-asserted
    50.00ns INFO     cocotb.axi_pim.s_axi               Reset de-asserted
    50.00ns INFO     cocotb.axi_pim.s_axi               Reset de-asserted
    50.00ns INFO     cocotb.axi_pim.s_axi               Reset de-asserted
    70.00ns INFO     cocotb.tb                          length 1, offset 4, size 0
    70.00ns INFO     cocotb.regression                  run_test_write_002 failed
                                                        Traceback (most recent call last):
                                                          File "/home/jueun/.local/lib/python3.10/site-packages/cocotb/regression.py", line 732, in _my_test
                                                            await function(dut, *args, **kwargs)
                                                          File "/home/jueun/park/PIM_Model/AXI/verilog-axi-master/tb/axi_pim/test_axi_pim.py", line 97, in run_test_write
                                                            await tb.axi_master.write(addr-4, b'\xaa'*(length+8))
                                                          File "/home/jueun/.local/lib/python3.10/site-packages/cocotbext/axi/axi_master.py", line 1071, in write
                                                            return await self.write_if.write(address, data, awid,
                                                          File "/home/jueun/.local/lib/python3.10/site-packages/cocotbext/axi/axi_master.py", line 358, in write
                                                            raise ValueError("Address out of range")
                                                        ValueError: Address out of range
    70.00ns INFO     cocotb.regression                  running run_test_write_003 (3/25)
                                                          Automatically generated test
                                                          
                                                          idle_inserter: None
                                                          backpressure_inserter: None
                                                          size: 1
    70.00ns INFO     cocotb.axi_pim.s_axi               AXI master (write)
    70.00ns INFO     cocotb.axi_pim.s_axi               cocotbext-axi version 0.1.24
    70.00ns INFO     cocotb.axi_pim.s_axi               Copyright (c) 2020 Alex Forencich
    70.00ns INFO     cocotb.axi_pim.s_axi               https://github.com/alexforencich/cocotbext-axi
    70.00ns INFO     cocotb.axi_pim.s_axi               Reset de-asserted
    70.00ns INFO     cocotb.axi_pim.s_axi               Reset de-asserted
    70.00ns INFO     cocotb.axi_pim.s_axi               Reset de-asserted
    70.00ns INFO     cocotb.axi_pim.s_axi               AXI master configuration:
    70.00ns INFO     cocotb.axi_pim.s_axi                 Address width: 8 bits
    70.00ns INFO     cocotb.axi_pim.s_axi                 ID width: 8 bits
    70.00ns INFO     cocotb.axi_pim.s_axi                 Byte size: 8 bits
    70.00ns INFO     cocotb.axi_pim.s_axi                 Data width: 32 bits (4 bytes)
    70.00ns INFO     cocotb.axi_pim.s_axi                 Max burst size: 2 (4 bytes)
    70.00ns INFO     cocotb.axi_pim.s_axi                 Max burst length: 256 cycles (1024 bytes)
    70.00ns INFO     cocotb.axi_pim.s_axi               AXI master signals:
    70.00ns INFO     cocotb.axi_pim.s_axi                 awaddr width: 8 bits
    70.00ns INFO     cocotb.axi_pim.s_axi                 awburst width: 2 bits
    70.00ns INFO     cocotb.axi_pim.s_axi                 awcache width: 4 bits
    70.00ns INFO     cocotb.axi_pim.s_axi                 awid width: 8 bits
    70.00ns INFO     cocotb.axi_pim.s_axi                 awlen width: 8 bits
    70.00ns INFO     cocotb.axi_pim.s_axi                 awlock width: 1 bits
    70.00ns INFO     cocotb.axi_pim.s_axi                 awprot width: 3 bits
    70.00ns INFO     cocotb.axi_pim.s_axi                 awqos: not present
    70.00ns INFO     cocotb.axi_pim.s_axi                 awready width: 1 bits
    70.00ns INFO     cocotb.axi_pim.s_axi                 awregion: not present
    70.00ns INFO     cocotb.axi_pim.s_axi                 awsize width: 3 bits
    70.00ns INFO     cocotb.axi_pim.s_axi                 awuser: not present
    70.00ns INFO     cocotb.axi_pim.s_axi                 awvalid width: 1 bits
    70.00ns INFO     cocotb.axi_pim.s_axi                 wdata width: 32 bits
    70.00ns INFO     cocotb.axi_pim.s_axi                 wlast width: 1 bits
    70.00ns INFO     cocotb.axi_pim.s_axi                 wready width: 1 bits
    70.00ns INFO     cocotb.axi_pim.s_axi                 wstrb width: 4 bits
    70.00ns INFO     cocotb.axi_pim.s_axi                 wuser: not present
    70.00ns INFO     cocotb.axi_pim.s_axi                 wvalid width: 1 bits
    70.00ns INFO     cocotb.axi_pim.s_axi                 bid width: 8 bits
    70.00ns INFO     cocotb.axi_pim.s_axi                 bready width: 1 bits
    70.00ns INFO     cocotb.axi_pim.s_axi                 bresp width: 2 bits
    70.00ns INFO     cocotb.axi_pim.s_axi                 buser: not present
    70.00ns INFO     cocotb.axi_pim.s_axi                 bvalid width: 1 bits
    70.00ns INFO     cocotb.axi_pim.s_axi               Reset de-asserted
    70.00ns INFO     cocotb.axi_pim.s_axi               AXI master (read)
    70.00ns INFO     cocotb.axi_pim.s_axi               cocotbext-axi version 0.1.24
    70.00ns INFO     cocotb.axi_pim.s_axi               Copyright (c) 2020 Alex Forencich
    70.00ns INFO     cocotb.axi_pim.s_axi               https://github.com/alexforencich/cocotbext-axi
    70.00ns INFO     cocotb.axi_pim.s_axi               Reset de-asserted
    70.00ns INFO     cocotb.axi_pim.s_axi               Reset de-asserted
    70.00ns INFO     cocotb.axi_pim.s_axi               AXI master configuration:
    70.00ns INFO     cocotb.axi_pim.s_axi                 Address width: 8 bits
    70.00ns INFO     cocotb.axi_pim.s_axi                 ID width: 8 bits
    70.00ns INFO     cocotb.axi_pim.s_axi                 Byte size: 8 bits
    70.00ns INFO     cocotb.axi_pim.s_axi                 Data width: 32 bits (4 bytes)
    70.00ns INFO     cocotb.axi_pim.s_axi                 Max burst size: 2 (4 bytes)
    70.00ns INFO     cocotb.axi_pim.s_axi                 Max burst length: 256 cycles (1024 bytes)
    70.00ns INFO     cocotb.axi_pim.s_axi               AXI master signals:
    70.00ns INFO     cocotb.axi_pim.s_axi                 araddr width: 8 bits
    70.00ns INFO     cocotb.axi_pim.s_axi                 arburst width: 2 bits
    70.00ns INFO     cocotb.axi_pim.s_axi                 arcache width: 4 bits
    70.00ns INFO     cocotb.axi_pim.s_axi                 arid width: 8 bits
    70.00ns INFO     cocotb.axi_pim.s_axi                 arlen width: 8 bits
    70.00ns INFO     cocotb.axi_pim.s_axi                 arlock width: 1 bits
    70.00ns INFO     cocotb.axi_pim.s_axi                 arprot width: 3 bits
    70.00ns INFO     cocotb.axi_pim.s_axi                 arqos: not present
    70.00ns INFO     cocotb.axi_pim.s_axi                 arready width: 1 bits
    70.00ns INFO     cocotb.axi_pim.s_axi                 arregion: not present
    70.00ns INFO     cocotb.axi_pim.s_axi                 arsize width: 3 bits
    70.00ns INFO     cocotb.axi_pim.s_axi                 aruser: not present
    70.00ns INFO     cocotb.axi_pim.s_axi                 arvalid width: 1 bits
    70.00ns INFO     cocotb.axi_pim.s_axi                 rdata width: 32 bits
    70.00ns INFO     cocotb.axi_pim.s_axi                 rid width: 8 bits
    70.00ns INFO     cocotb.axi_pim.s_axi                 rlast width: 1 bits
    70.00ns INFO     cocotb.axi_pim.s_axi                 rready width: 1 bits
    70.00ns INFO     cocotb.axi_pim.s_axi                 rresp width: 2 bits
    70.00ns INFO     cocotb.axi_pim.s_axi                 ruser: not present
    70.00ns INFO     cocotb.axi_pim.s_axi                 rvalid width: 1 bits
    70.00ns INFO     cocotb.axi_pim.s_axi               Reset de-asserted
    70.00ns INFO     cocotb.axi_pim.s_axi               Reset asserted
    70.00ns INFO     cocotb.axi_pim.s_axi               Reset asserted
    70.00ns INFO     cocotb.axi_pim.s_axi               Reset asserted
    70.00ns INFO     cocotb.axi_pim.s_axi               Reset asserted
    70.00ns INFO     cocotb.axi_pim.s_axi               Reset asserted
    70.00ns INFO     cocotb.axi_pim.s_axi               Reset asserted
    70.00ns INFO     cocotb.axi_pim.s_axi               Reset asserted
    90.00ns INFO     cocotb.axi_pim.s_axi               Reset de-asserted
    90.00ns INFO     cocotb.axi_pim.s_axi               Reset de-asserted
    90.00ns INFO     cocotb.axi_pim.s_axi               Reset de-asserted
    90.00ns INFO     cocotb.axi_pim.s_axi               Reset de-asserted
    90.00ns INFO     cocotb.axi_pim.s_axi               Reset de-asserted
    90.00ns INFO     cocotb.axi_pim.s_axi               Reset de-asserted
    90.00ns INFO     cocotb.axi_pim.s_axi               Reset de-asserted
   110.00ns INFO     cocotb.tb                          length 1, offset 4, size 1
   110.00ns INFO     cocotb.regression                  run_test_write_003 failed
                                                        Traceback (most recent call last):
                                                          File "/home/jueun/.local/lib/python3.10/site-packages/cocotb/regression.py", line 732, in _my_test
                                                            await function(dut, *args, **kwargs)
                                                          File "/home/jueun/park/PIM_Model/AXI/verilog-axi-master/tb/axi_pim/test_axi_pim.py", line 97, in run_test_write
                                                            await tb.axi_master.write(addr-4, b'\xaa'*(length+8))
                                                          File "/home/jueun/.local/lib/python3.10/site-packages/cocotbext/axi/axi_master.py", line 1071, in write
                                                            return await self.write_if.write(address, data, awid,
                                                          File "/home/jueun/.local/lib/python3.10/site-packages/cocotbext/axi/axi_master.py", line 358, in write
                                                            raise ValueError("Address out of range")
                                                        ValueError: Address out of range
   110.00ns INFO     cocotb.regression                  running run_test_write_004 (4/25)
                                                          Automatically generated test
                                                          
                                                          idle_inserter: None
                                                          backpressure_inserter: cycle_pause (No docstring supplied)
                                                          size: None
   110.00ns INFO     cocotb.axi_pim.s_axi               AXI master (write)
   110.00ns INFO     cocotb.axi_pim.s_axi               cocotbext-axi version 0.1.24
   110.00ns INFO     cocotb.axi_pim.s_axi               Copyright (c) 2020 Alex Forencich
   110.00ns INFO     cocotb.axi_pim.s_axi               https://github.com/alexforencich/cocotbext-axi
   110.00ns INFO     cocotb.axi_pim.s_axi               Reset de-asserted
   110.00ns INFO     cocotb.axi_pim.s_axi               Reset de-asserted
   110.00ns INFO     cocotb.axi_pim.s_axi               Reset de-asserted
   110.00ns INFO     cocotb.axi_pim.s_axi               AXI master configuration:
   110.00ns INFO     cocotb.axi_pim.s_axi                 Address width: 8 bits
   110.00ns INFO     cocotb.axi_pim.s_axi                 ID width: 8 bits
   110.00ns INFO     cocotb.axi_pim.s_axi                 Byte size: 8 bits
   110.00ns INFO     cocotb.axi_pim.s_axi                 Data width: 32 bits (4 bytes)
   110.00ns INFO     cocotb.axi_pim.s_axi                 Max burst size: 2 (4 bytes)
   110.00ns INFO     cocotb.axi_pim.s_axi                 Max burst length: 256 cycles (1024 bytes)
   110.00ns INFO     cocotb.axi_pim.s_axi               AXI master signals:
   110.00ns INFO     cocotb.axi_pim.s_axi                 awaddr width: 8 bits
   110.00ns INFO     cocotb.axi_pim.s_axi                 awburst width: 2 bits
   110.00ns INFO     cocotb.axi_pim.s_axi                 awcache width: 4 bits
   110.00ns INFO     cocotb.axi_pim.s_axi                 awid width: 8 bits
   110.00ns INFO     cocotb.axi_pim.s_axi                 awlen width: 8 bits
   110.00ns INFO     cocotb.axi_pim.s_axi                 awlock width: 1 bits
   110.00ns INFO     cocotb.axi_pim.s_axi                 awprot width: 3 bits
   110.00ns INFO     cocotb.axi_pim.s_axi                 awqos: not present
   110.00ns INFO     cocotb.axi_pim.s_axi                 awready width: 1 bits
   110.00ns INFO     cocotb.axi_pim.s_axi                 awregion: not present
   110.00ns INFO     cocotb.axi_pim.s_axi                 awsize width: 3 bits
   110.00ns INFO     cocotb.axi_pim.s_axi                 awuser: not present
   110.00ns INFO     cocotb.axi_pim.s_axi                 awvalid width: 1 bits
   110.00ns INFO     cocotb.axi_pim.s_axi                 wdata width: 32 bits
   110.00ns INFO     cocotb.axi_pim.s_axi                 wlast width: 1 bits
   110.00ns INFO     cocotb.axi_pim.s_axi                 wready width: 1 bits
   110.00ns INFO     cocotb.axi_pim.s_axi                 wstrb width: 4 bits
   110.00ns INFO     cocotb.axi_pim.s_axi                 wuser: not present
   110.00ns INFO     cocotb.axi_pim.s_axi                 wvalid width: 1 bits
   110.00ns INFO     cocotb.axi_pim.s_axi                 bid width: 8 bits
   110.00ns INFO     cocotb.axi_pim.s_axi                 bready width: 1 bits
   110.00ns INFO     cocotb.axi_pim.s_axi                 bresp width: 2 bits
   110.00ns INFO     cocotb.axi_pim.s_axi                 buser: not present
   110.00ns INFO     cocotb.axi_pim.s_axi                 bvalid width: 1 bits
   110.00ns INFO     cocotb.axi_pim.s_axi               Reset de-asserted
   110.00ns INFO     cocotb.axi_pim.s_axi               AXI master (read)
   110.00ns INFO     cocotb.axi_pim.s_axi               cocotbext-axi version 0.1.24
   110.00ns INFO     cocotb.axi_pim.s_axi               Copyright (c) 2020 Alex Forencich
   110.00ns INFO     cocotb.axi_pim.s_axi               https://github.com/alexforencich/cocotbext-axi
   110.00ns INFO     cocotb.axi_pim.s_axi               Reset de-asserted
   110.00ns INFO     cocotb.axi_pim.s_axi               Reset de-asserted
   110.00ns INFO     cocotb.axi_pim.s_axi               AXI master configuration:
   110.00ns INFO     cocotb.axi_pim.s_axi                 Address width: 8 bits
   110.00ns INFO     cocotb.axi_pim.s_axi                 ID width: 8 bits
   110.00ns INFO     cocotb.axi_pim.s_axi                 Byte size: 8 bits
   110.00ns INFO     cocotb.axi_pim.s_axi                 Data width: 32 bits (4 bytes)
   110.00ns INFO     cocotb.axi_pim.s_axi                 Max burst size: 2 (4 bytes)
   110.00ns INFO     cocotb.axi_pim.s_axi                 Max burst length: 256 cycles (1024 bytes)
   110.00ns INFO     cocotb.axi_pim.s_axi               AXI master signals:
   110.00ns INFO     cocotb.axi_pim.s_axi                 araddr width: 8 bits
   110.00ns INFO     cocotb.axi_pim.s_axi                 arburst width: 2 bits
   110.00ns INFO     cocotb.axi_pim.s_axi                 arcache width: 4 bits
   110.00ns INFO     cocotb.axi_pim.s_axi                 arid width: 8 bits
   110.00ns INFO     cocotb.axi_pim.s_axi                 arlen width: 8 bits
   110.00ns INFO     cocotb.axi_pim.s_axi                 arlock width: 1 bits
   110.00ns INFO     cocotb.axi_pim.s_axi                 arprot width: 3 bits
   110.00ns INFO     cocotb.axi_pim.s_axi                 arqos: not present
   110.00ns INFO     cocotb.axi_pim.s_axi                 arready width: 1 bits
   110.00ns INFO     cocotb.axi_pim.s_axi                 arregion: not present
   110.00ns INFO     cocotb.axi_pim.s_axi                 arsize width: 3 bits
   110.00ns INFO     cocotb.axi_pim.s_axi                 aruser: not present
   110.00ns INFO     cocotb.axi_pim.s_axi                 arvalid width: 1 bits
   110.00ns INFO     cocotb.axi_pim.s_axi                 rdata width: 32 bits
   110.00ns INFO     cocotb.axi_pim.s_axi                 rid width: 8 bits
   110.00ns INFO     cocotb.axi_pim.s_axi                 rlast width: 1 bits
   110.00ns INFO     cocotb.axi_pim.s_axi                 rready width: 1 bits
   110.00ns INFO     cocotb.axi_pim.s_axi                 rresp width: 2 bits
   110.00ns INFO     cocotb.axi_pim.s_axi                 ruser: not present
   110.00ns INFO     cocotb.axi_pim.s_axi                 rvalid width: 1 bits
   110.00ns INFO     cocotb.axi_pim.s_axi               Reset de-asserted
   110.00ns INFO     cocotb.axi_pim.s_axi               Reset asserted
   110.00ns INFO     cocotb.axi_pim.s_axi               Reset asserted
   110.00ns INFO     cocotb.axi_pim.s_axi               Reset asserted
   110.00ns INFO     cocotb.axi_pim.s_axi               Reset asserted
   110.00ns INFO     cocotb.axi_pim.s_axi               Reset asserted
   110.00ns INFO     cocotb.axi_pim.s_axi               Reset asserted
   110.00ns INFO     cocotb.axi_pim.s_axi               Reset asserted
   130.00ns INFO     cocotb.axi_pim.s_axi               Reset de-asserted
   130.00ns INFO     cocotb.axi_pim.s_axi               Reset de-asserted
   130.00ns INFO     cocotb.axi_pim.s_axi               Reset de-asserted
   130.00ns INFO     cocotb.axi_pim.s_axi               Reset de-asserted
   130.00ns INFO     cocotb.axi_pim.s_axi               Reset de-asserted
   130.00ns INFO     cocotb.axi_pim.s_axi               Reset de-asserted
   130.00ns INFO     cocotb.axi_pim.s_axi               Reset de-asserted
   150.00ns INFO     cocotb.tb                          length 1, offset 4, size 2
   150.00ns INFO     cocotb.regression                  run_test_write_004 failed
                                                        Traceback (most recent call last):
                                                          File "/home/jueun/.local/lib/python3.10/site-packages/cocotb/regression.py", line 732, in _my_test
                                                            await function(dut, *args, **kwargs)
                                                          File "/home/jueun/park/PIM_Model/AXI/verilog-axi-master/tb/axi_pim/test_axi_pim.py", line 97, in run_test_write
                                                            await tb.axi_master.write(addr-4, b'\xaa'*(length+8))
                                                          File "/home/jueun/.local/lib/python3.10/site-packages/cocotbext/axi/axi_master.py", line 1071, in write
                                                            return await self.write_if.write(address, data, awid,
                                                          File "/home/jueun/.local/lib/python3.10/site-packages/cocotbext/axi/axi_master.py", line 358, in write
                                                            raise ValueError("Address out of range")
                                                        ValueError: Address out of range
   150.00ns INFO     cocotb.regression                  running run_test_write_005 (5/25)
                                                          Automatically generated test
                                                          
                                                          idle_inserter: None
                                                          backpressure_inserter: cycle_pause (No docstring supplied)
                                                          size: 0
   150.00ns INFO     cocotb.axi_pim.s_axi               AXI master (write)
   150.00ns INFO     cocotb.axi_pim.s_axi               cocotbext-axi version 0.1.24
   150.00ns INFO     cocotb.axi_pim.s_axi               Copyright (c) 2020 Alex Forencich
   150.00ns INFO     cocotb.axi_pim.s_axi               https://github.com/alexforencich/cocotbext-axi
   150.00ns INFO     cocotb.axi_pim.s_axi               Reset de-asserted
   150.00ns INFO     cocotb.axi_pim.s_axi               Reset de-asserted
   150.00ns INFO     cocotb.axi_pim.s_axi               Reset de-asserted
   150.00ns INFO     cocotb.axi_pim.s_axi               AXI master configuration:
   150.00ns INFO     cocotb.axi_pim.s_axi                 Address width: 8 bits
   150.00ns INFO     cocotb.axi_pim.s_axi                 ID width: 8 bits
   150.00ns INFO     cocotb.axi_pim.s_axi                 Byte size: 8 bits
   150.00ns INFO     cocotb.axi_pim.s_axi                 Data width: 32 bits (4 bytes)
   150.00ns INFO     cocotb.axi_pim.s_axi                 Max burst size: 2 (4 bytes)
   150.00ns INFO     cocotb.axi_pim.s_axi                 Max burst length: 256 cycles (1024 bytes)
   150.00ns INFO     cocotb.axi_pim.s_axi               AXI master signals:
   150.00ns INFO     cocotb.axi_pim.s_axi                 awaddr width: 8 bits
   150.00ns INFO     cocotb.axi_pim.s_axi                 awburst width: 2 bits
   150.00ns INFO     cocotb.axi_pim.s_axi                 awcache width: 4 bits
   150.00ns INFO     cocotb.axi_pim.s_axi                 awid width: 8 bits
   150.00ns INFO     cocotb.axi_pim.s_axi                 awlen width: 8 bits
   150.00ns INFO     cocotb.axi_pim.s_axi                 awlock width: 1 bits
   150.00ns INFO     cocotb.axi_pim.s_axi                 awprot width: 3 bits
   150.00ns INFO     cocotb.axi_pim.s_axi                 awqos: not present
   150.00ns INFO     cocotb.axi_pim.s_axi                 awready width: 1 bits
   150.00ns INFO     cocotb.axi_pim.s_axi                 awregion: not present
   150.00ns INFO     cocotb.axi_pim.s_axi                 awsize width: 3 bits
   150.00ns INFO     cocotb.axi_pim.s_axi                 awuser: not present
   150.00ns INFO     cocotb.axi_pim.s_axi                 awvalid width: 1 bits
   150.00ns INFO     cocotb.axi_pim.s_axi                 wdata width: 32 bits
   150.00ns INFO     cocotb.axi_pim.s_axi                 wlast width: 1 bits
   150.00ns INFO     cocotb.axi_pim.s_axi                 wready width: 1 bits
   150.00ns INFO     cocotb.axi_pim.s_axi                 wstrb width: 4 bits
   150.00ns INFO     cocotb.axi_pim.s_axi                 wuser: not present
   150.00ns INFO     cocotb.axi_pim.s_axi                 wvalid width: 1 bits
   150.00ns INFO     cocotb.axi_pim.s_axi                 bid width: 8 bits
   150.00ns INFO     cocotb.axi_pim.s_axi                 bready width: 1 bits
   150.00ns INFO     cocotb.axi_pim.s_axi                 bresp width: 2 bits
   150.00ns INFO     cocotb.axi_pim.s_axi                 buser: not present
   150.00ns INFO     cocotb.axi_pim.s_axi                 bvalid width: 1 bits
   150.00ns INFO     cocotb.axi_pim.s_axi               Reset de-asserted
   150.00ns INFO     cocotb.axi_pim.s_axi               AXI master (read)
   150.00ns INFO     cocotb.axi_pim.s_axi               cocotbext-axi version 0.1.24
   150.00ns INFO     cocotb.axi_pim.s_axi               Copyright (c) 2020 Alex Forencich
   150.00ns INFO     cocotb.axi_pim.s_axi               https://github.com/alexforencich/cocotbext-axi
   150.00ns INFO     cocotb.axi_pim.s_axi               Reset de-asserted
   150.00ns INFO     cocotb.axi_pim.s_axi               Reset de-asserted
   150.00ns INFO     cocotb.axi_pim.s_axi               AXI master configuration:
   150.00ns INFO     cocotb.axi_pim.s_axi                 Address width: 8 bits
   150.00ns INFO     cocotb.axi_pim.s_axi                 ID width: 8 bits
   150.00ns INFO     cocotb.axi_pim.s_axi                 Byte size: 8 bits
   150.00ns INFO     cocotb.axi_pim.s_axi                 Data width: 32 bits (4 bytes)
   150.00ns INFO     cocotb.axi_pim.s_axi                 Max burst size: 2 (4 bytes)
   150.00ns INFO     cocotb.axi_pim.s_axi                 Max burst length: 256 cycles (1024 bytes)
   150.00ns INFO     cocotb.axi_pim.s_axi               AXI master signals:
   150.00ns INFO     cocotb.axi_pim.s_axi                 araddr width: 8 bits
   150.00ns INFO     cocotb.axi_pim.s_axi                 arburst width: 2 bits
   150.00ns INFO     cocotb.axi_pim.s_axi                 arcache width: 4 bits
   150.00ns INFO     cocotb.axi_pim.s_axi                 arid width: 8 bits
   150.00ns INFO     cocotb.axi_pim.s_axi                 arlen width: 8 bits
   150.00ns INFO     cocotb.axi_pim.s_axi                 arlock width: 1 bits
   150.00ns INFO     cocotb.axi_pim.s_axi                 arprot width: 3 bits
   150.00ns INFO     cocotb.axi_pim.s_axi                 arqos: not present
   150.00ns INFO     cocotb.axi_pim.s_axi                 arready width: 1 bits
   150.00ns INFO     cocotb.axi_pim.s_axi                 arregion: not present
   150.00ns INFO     cocotb.axi_pim.s_axi                 arsize width: 3 bits
   150.00ns INFO     cocotb.axi_pim.s_axi                 aruser: not present
   150.00ns INFO     cocotb.axi_pim.s_axi                 arvalid width: 1 bits
   150.00ns INFO     cocotb.axi_pim.s_axi                 rdata width: 32 bits
   150.00ns INFO     cocotb.axi_pim.s_axi                 rid width: 8 bits
   150.00ns INFO     cocotb.axi_pim.s_axi                 rlast width: 1 bits
   150.00ns INFO     cocotb.axi_pim.s_axi                 rready width: 1 bits
   150.00ns INFO     cocotb.axi_pim.s_axi                 rresp width: 2 bits
   150.00ns INFO     cocotb.axi_pim.s_axi                 ruser: not present
   150.00ns INFO     cocotb.axi_pim.s_axi                 rvalid width: 1 bits
   150.00ns INFO     cocotb.axi_pim.s_axi               Reset de-asserted
   150.00ns INFO     cocotb.axi_pim.s_axi               Reset asserted
   150.00ns INFO     cocotb.axi_pim.s_axi               Reset asserted
   150.00ns INFO     cocotb.axi_pim.s_axi               Reset asserted
   150.00ns INFO     cocotb.axi_pim.s_axi               Reset asserted
   150.00ns INFO     cocotb.axi_pim.s_axi               Reset asserted
   150.00ns INFO     cocotb.axi_pim.s_axi               Reset asserted
   150.00ns INFO     cocotb.axi_pim.s_axi               Reset asserted
   170.00ns INFO     cocotb.axi_pim.s_axi               Reset de-asserted
   170.00ns INFO     cocotb.axi_pim.s_axi               Reset de-asserted
   170.00ns INFO     cocotb.axi_pim.s_axi               Reset de-asserted
   170.00ns INFO     cocotb.axi_pim.s_axi               Reset de-asserted
   170.00ns INFO     cocotb.axi_pim.s_axi               Reset de-asserted
   170.00ns INFO     cocotb.axi_pim.s_axi               Reset de-asserted
   170.00ns INFO     cocotb.axi_pim.s_axi               Reset de-asserted
   190.00ns INFO     cocotb.tb                          length 1, offset 4, size 0
   190.00ns INFO     cocotb.regression                  run_test_write_005 failed
                                                        Traceback (most recent call last):
                                                          File "/home/jueun/.local/lib/python3.10/site-packages/cocotb/regression.py", line 732, in _my_test
                                                            await function(dut, *args, **kwargs)
                                                          File "/home/jueun/park/PIM_Model/AXI/verilog-axi-master/tb/axi_pim/test_axi_pim.py", line 97, in run_test_write
                                                            await tb.axi_master.write(addr-4, b'\xaa'*(length+8))
                                                          File "/home/jueun/.local/lib/python3.10/site-packages/cocotbext/axi/axi_master.py", line 1071, in write
                                                            return await self.write_if.write(address, data, awid,
                                                          File "/home/jueun/.local/lib/python3.10/site-packages/cocotbext/axi/axi_master.py", line 358, in write
                                                            raise ValueError("Address out of range")
                                                        ValueError: Address out of range
   190.00ns INFO     cocotb.regression                  running run_test_write_006 (6/25)
                                                          Automatically generated test
                                                          
                                                          idle_inserter: None
                                                          backpressure_inserter: cycle_pause (No docstring supplied)
                                                          size: 1
   190.00ns INFO     cocotb.axi_pim.s_axi               AXI master (write)
   190.00ns INFO     cocotb.axi_pim.s_axi               cocotbext-axi version 0.1.24
   190.00ns INFO     cocotb.axi_pim.s_axi               Copyright (c) 2020 Alex Forencich
   190.00ns INFO     cocotb.axi_pim.s_axi               https://github.com/alexforencich/cocotbext-axi
   190.00ns INFO     cocotb.axi_pim.s_axi               Reset de-asserted
   190.00ns INFO     cocotb.axi_pim.s_axi               Reset de-asserted
   190.00ns INFO     cocotb.axi_pim.s_axi               Reset de-asserted
   190.00ns INFO     cocotb.axi_pim.s_axi               AXI master configuration:
   190.00ns INFO     cocotb.axi_pim.s_axi                 Address width: 8 bits
   190.00ns INFO     cocotb.axi_pim.s_axi                 ID width: 8 bits
   190.00ns INFO     cocotb.axi_pim.s_axi                 Byte size: 8 bits
   190.00ns INFO     cocotb.axi_pim.s_axi                 Data width: 32 bits (4 bytes)
   190.00ns INFO     cocotb.axi_pim.s_axi                 Max burst size: 2 (4 bytes)
   190.00ns INFO     cocotb.axi_pim.s_axi                 Max burst length: 256 cycles (1024 bytes)
   190.00ns INFO     cocotb.axi_pim.s_axi               AXI master signals:
   190.00ns INFO     cocotb.axi_pim.s_axi                 awaddr width: 8 bits
   190.00ns INFO     cocotb.axi_pim.s_axi                 awburst width: 2 bits
   190.00ns INFO     cocotb.axi_pim.s_axi                 awcache width: 4 bits
   190.00ns INFO     cocotb.axi_pim.s_axi                 awid width: 8 bits
   190.00ns INFO     cocotb.axi_pim.s_axi                 awlen width: 8 bits
   190.00ns INFO     cocotb.axi_pim.s_axi                 awlock width: 1 bits
   190.00ns INFO     cocotb.axi_pim.s_axi                 awprot width: 3 bits
   190.00ns INFO     cocotb.axi_pim.s_axi                 awqos: not present
   190.00ns INFO     cocotb.axi_pim.s_axi                 awready width: 1 bits
   190.00ns INFO     cocotb.axi_pim.s_axi                 awregion: not present
   190.00ns INFO     cocotb.axi_pim.s_axi                 awsize width: 3 bits
   190.00ns INFO     cocotb.axi_pim.s_axi                 awuser: not present
   190.00ns INFO     cocotb.axi_pim.s_axi                 awvalid width: 1 bits
   190.00ns INFO     cocotb.axi_pim.s_axi                 wdata width: 32 bits
   190.00ns INFO     cocotb.axi_pim.s_axi                 wlast width: 1 bits
   190.00ns INFO     cocotb.axi_pim.s_axi                 wready width: 1 bits
   190.00ns INFO     cocotb.axi_pim.s_axi                 wstrb width: 4 bits
   190.00ns INFO     cocotb.axi_pim.s_axi                 wuser: not present
   190.00ns INFO     cocotb.axi_pim.s_axi                 wvalid width: 1 bits
   190.00ns INFO     cocotb.axi_pim.s_axi                 bid width: 8 bits
   190.00ns INFO     cocotb.axi_pim.s_axi                 bready width: 1 bits
   190.00ns INFO     cocotb.axi_pim.s_axi                 bresp width: 2 bits
   190.00ns INFO     cocotb.axi_pim.s_axi                 buser: not present
   190.00ns INFO     cocotb.axi_pim.s_axi                 bvalid width: 1 bits
   190.00ns INFO     cocotb.axi_pim.s_axi               Reset de-asserted
   190.00ns INFO     cocotb.axi_pim.s_axi               AXI master (read)
   190.00ns INFO     cocotb.axi_pim.s_axi               cocotbext-axi version 0.1.24
   190.00ns INFO     cocotb.axi_pim.s_axi               Copyright (c) 2020 Alex Forencich
   190.00ns INFO     cocotb.axi_pim.s_axi               https://github.com/alexforencich/cocotbext-axi
   190.00ns INFO     cocotb.axi_pim.s_axi               Reset de-asserted
   190.00ns INFO     cocotb.axi_pim.s_axi               Reset de-asserted
   190.00ns INFO     cocotb.axi_pim.s_axi               AXI master configuration:
   190.00ns INFO     cocotb.axi_pim.s_axi                 Address width: 8 bits
   190.00ns INFO     cocotb.axi_pim.s_axi                 ID width: 8 bits
   190.00ns INFO     cocotb.axi_pim.s_axi                 Byte size: 8 bits
   190.00ns INFO     cocotb.axi_pim.s_axi                 Data width: 32 bits (4 bytes)
   190.00ns INFO     cocotb.axi_pim.s_axi                 Max burst size: 2 (4 bytes)
   190.00ns INFO     cocotb.axi_pim.s_axi                 Max burst length: 256 cycles (1024 bytes)
   190.00ns INFO     cocotb.axi_pim.s_axi               AXI master signals:
   190.00ns INFO     cocotb.axi_pim.s_axi                 araddr width: 8 bits
   190.00ns INFO     cocotb.axi_pim.s_axi                 arburst width: 2 bits
   190.00ns INFO     cocotb.axi_pim.s_axi                 arcache width: 4 bits
   190.00ns INFO     cocotb.axi_pim.s_axi                 arid width: 8 bits
   190.00ns INFO     cocotb.axi_pim.s_axi                 arlen width: 8 bits
   190.00ns INFO     cocotb.axi_pim.s_axi                 arlock width: 1 bits
   190.00ns INFO     cocotb.axi_pim.s_axi                 arprot width: 3 bits
   190.00ns INFO     cocotb.axi_pim.s_axi                 arqos: not present
   190.00ns INFO     cocotb.axi_pim.s_axi                 arready width: 1 bits
   190.00ns INFO     cocotb.axi_pim.s_axi                 arregion: not present
   190.00ns INFO     cocotb.axi_pim.s_axi                 arsize width: 3 bits
   190.00ns INFO     cocotb.axi_pim.s_axi                 aruser: not present
   190.00ns INFO     cocotb.axi_pim.s_axi                 arvalid width: 1 bits
   190.00ns INFO     cocotb.axi_pim.s_axi                 rdata width: 32 bits
   190.00ns INFO     cocotb.axi_pim.s_axi                 rid width: 8 bits
   190.00ns INFO     cocotb.axi_pim.s_axi                 rlast width: 1 bits
   190.00ns INFO     cocotb.axi_pim.s_axi                 rready width: 1 bits
   190.00ns INFO     cocotb.axi_pim.s_axi                 rresp width: 2 bits
   190.00ns INFO     cocotb.axi_pim.s_axi                 ruser: not present
   190.00ns INFO     cocotb.axi_pim.s_axi                 rvalid width: 1 bits
   190.00ns INFO     cocotb.axi_pim.s_axi               Reset de-asserted
   190.00ns INFO     cocotb.axi_pim.s_axi               Reset asserted
   190.00ns INFO     cocotb.axi_pim.s_axi               Reset asserted
   190.00ns INFO     cocotb.axi_pim.s_axi               Reset asserted
   190.00ns INFO     cocotb.axi_pim.s_axi               Reset asserted
   190.00ns INFO     cocotb.axi_pim.s_axi               Reset asserted
   190.00ns INFO     cocotb.axi_pim.s_axi               Reset asserted
   190.00ns INFO     cocotb.axi_pim.s_axi               Reset asserted
   210.00ns INFO     cocotb.axi_pim.s_axi               Reset de-asserted
   210.00ns INFO     cocotb.axi_pim.s_axi               Reset de-asserted
   210.00ns INFO     cocotb.axi_pim.s_axi               Reset de-asserted
   210.00ns INFO     cocotb.axi_pim.s_axi               Reset de-asserted
   210.00ns INFO     cocotb.axi_pim.s_axi               Reset de-asserted
   210.00ns INFO     cocotb.axi_pim.s_axi               Reset de-asserted
   210.00ns INFO     cocotb.axi_pim.s_axi               Reset de-asserted
   230.00ns INFO     cocotb.tb                          length 1, offset 4, size 1
   230.01ns INFO     cocotb.regression                  run_test_write_006 failed
                                                        Traceback (most recent call last):
                                                          File "/home/jueun/.local/lib/python3.10/site-packages/cocotb/regression.py", line 732, in _my_test
                                                            await function(dut, *args, **kwargs)
                                                          File "/home/jueun/park/PIM_Model/AXI/verilog-axi-master/tb/axi_pim/test_axi_pim.py", line 97, in run_test_write
                                                            await tb.axi_master.write(addr-4, b'\xaa'*(length+8))
                                                          File "/home/jueun/.local/lib/python3.10/site-packages/cocotbext/axi/axi_master.py", line 1071, in write
                                                            return await self.write_if.write(address, data, awid,
                                                          File "/home/jueun/.local/lib/python3.10/site-packages/cocotbext/axi/axi_master.py", line 358, in write
                                                            raise ValueError("Address out of range")
                                                        ValueError: Address out of range
   230.01ns INFO     cocotb.regression                  running run_test_write_007 (7/25)
                                                          Automatically generated test
                                                          
                                                          idle_inserter: cycle_pause (No docstring supplied)
                                                          backpressure_inserter: None
                                                          size: None
   230.01ns INFO     cocotb.axi_pim.s_axi               AXI master (write)
   230.01ns INFO     cocotb.axi_pim.s_axi               cocotbext-axi version 0.1.24
   230.01ns INFO     cocotb.axi_pim.s_axi               Copyright (c) 2020 Alex Forencich
   230.01ns INFO     cocotb.axi_pim.s_axi               https://github.com/alexforencich/cocotbext-axi
   230.01ns INFO     cocotb.axi_pim.s_axi               Reset de-asserted
   230.01ns INFO     cocotb.axi_pim.s_axi               Reset de-asserted
   230.01ns INFO     cocotb.axi_pim.s_axi               Reset de-asserted
   230.01ns INFO     cocotb.axi_pim.s_axi               AXI master configuration:
   230.01ns INFO     cocotb.axi_pim.s_axi                 Address width: 8 bits
   230.01ns INFO     cocotb.axi_pim.s_axi                 ID width: 8 bits
   230.01ns INFO     cocotb.axi_pim.s_axi                 Byte size: 8 bits
   230.01ns INFO     cocotb.axi_pim.s_axi                 Data width: 32 bits (4 bytes)
   230.01ns INFO     cocotb.axi_pim.s_axi                 Max burst size: 2 (4 bytes)
   230.01ns INFO     cocotb.axi_pim.s_axi                 Max burst length: 256 cycles (1024 bytes)
   230.01ns INFO     cocotb.axi_pim.s_axi               AXI master signals:
   230.01ns INFO     cocotb.axi_pim.s_axi                 awaddr width: 8 bits
   230.01ns INFO     cocotb.axi_pim.s_axi                 awburst width: 2 bits
   230.01ns INFO     cocotb.axi_pim.s_axi                 awcache width: 4 bits
   230.01ns INFO     cocotb.axi_pim.s_axi                 awid width: 8 bits
   230.01ns INFO     cocotb.axi_pim.s_axi                 awlen width: 8 bits
   230.01ns INFO     cocotb.axi_pim.s_axi                 awlock width: 1 bits
   230.01ns INFO     cocotb.axi_pim.s_axi                 awprot width: 3 bits
   230.01ns INFO     cocotb.axi_pim.s_axi                 awqos: not present
   230.01ns INFO     cocotb.axi_pim.s_axi                 awready width: 1 bits
   230.01ns INFO     cocotb.axi_pim.s_axi                 awregion: not present
   230.01ns INFO     cocotb.axi_pim.s_axi                 awsize width: 3 bits
   230.01ns INFO     cocotb.axi_pim.s_axi                 awuser: not present
   230.01ns INFO     cocotb.axi_pim.s_axi                 awvalid width: 1 bits
   230.01ns INFO     cocotb.axi_pim.s_axi                 wdata width: 32 bits
   230.01ns INFO     cocotb.axi_pim.s_axi                 wlast width: 1 bits
   230.01ns INFO     cocotb.axi_pim.s_axi                 wready width: 1 bits
   230.01ns INFO     cocotb.axi_pim.s_axi                 wstrb width: 4 bits
   230.01ns INFO     cocotb.axi_pim.s_axi                 wuser: not present
   230.01ns INFO     cocotb.axi_pim.s_axi                 wvalid width: 1 bits
   230.01ns INFO     cocotb.axi_pim.s_axi                 bid width: 8 bits
   230.01ns INFO     cocotb.axi_pim.s_axi                 bready width: 1 bits
   230.01ns INFO     cocotb.axi_pim.s_axi                 bresp width: 2 bits
   230.01ns INFO     cocotb.axi_pim.s_axi                 buser: not present
   230.01ns INFO     cocotb.axi_pim.s_axi                 bvalid width: 1 bits
   230.01ns INFO     cocotb.axi_pim.s_axi               Reset de-asserted
   230.01ns INFO     cocotb.axi_pim.s_axi               AXI master (read)
   230.01ns INFO     cocotb.axi_pim.s_axi               cocotbext-axi version 0.1.24
   230.01ns INFO     cocotb.axi_pim.s_axi               Copyright (c) 2020 Alex Forencich
   230.01ns INFO     cocotb.axi_pim.s_axi               https://github.com/alexforencich/cocotbext-axi
   230.01ns INFO     cocotb.axi_pim.s_axi               Reset de-asserted
   230.01ns INFO     cocotb.axi_pim.s_axi               Reset de-asserted
   230.01ns INFO     cocotb.axi_pim.s_axi               AXI master configuration:
   230.01ns INFO     cocotb.axi_pim.s_axi                 Address width: 8 bits
   230.01ns INFO     cocotb.axi_pim.s_axi                 ID width: 8 bits
   230.01ns INFO     cocotb.axi_pim.s_axi                 Byte size: 8 bits
   230.01ns INFO     cocotb.axi_pim.s_axi                 Data width: 32 bits (4 bytes)
   230.01ns INFO     cocotb.axi_pim.s_axi                 Max burst size: 2 (4 bytes)
   230.01ns INFO     cocotb.axi_pim.s_axi                 Max burst length: 256 cycles (1024 bytes)
   230.01ns INFO     cocotb.axi_pim.s_axi               AXI master signals:
   230.01ns INFO     cocotb.axi_pim.s_axi                 araddr width: 8 bits
   230.01ns INFO     cocotb.axi_pim.s_axi                 arburst width: 2 bits
   230.01ns INFO     cocotb.axi_pim.s_axi                 arcache width: 4 bits
   230.01ns INFO     cocotb.axi_pim.s_axi                 arid width: 8 bits
   230.01ns INFO     cocotb.axi_pim.s_axi                 arlen width: 8 bits
   230.01ns INFO     cocotb.axi_pim.s_axi                 arlock width: 1 bits
   230.01ns INFO     cocotb.axi_pim.s_axi                 arprot width: 3 bits
   230.01ns INFO     cocotb.axi_pim.s_axi                 arqos: not present
   230.01ns INFO     cocotb.axi_pim.s_axi                 arready width: 1 bits
   230.01ns INFO     cocotb.axi_pim.s_axi                 arregion: not present
   230.01ns INFO     cocotb.axi_pim.s_axi                 arsize width: 3 bits
   230.01ns INFO     cocotb.axi_pim.s_axi                 aruser: not present
   230.01ns INFO     cocotb.axi_pim.s_axi                 arvalid width: 1 bits
   230.01ns INFO     cocotb.axi_pim.s_axi                 rdata width: 32 bits
   230.01ns INFO     cocotb.axi_pim.s_axi                 rid width: 8 bits
   230.01ns INFO     cocotb.axi_pim.s_axi                 rlast width: 1 bits
   230.01ns INFO     cocotb.axi_pim.s_axi                 rready width: 1 bits
   230.01ns INFO     cocotb.axi_pim.s_axi                 rresp width: 2 bits
   230.01ns INFO     cocotb.axi_pim.s_axi                 ruser: not present
   230.01ns INFO     cocotb.axi_pim.s_axi                 rvalid width: 1 bits
   230.01ns INFO     cocotb.axi_pim.s_axi               Reset de-asserted
   230.01ns INFO     cocotb.axi_pim.s_axi               Reset asserted
   230.01ns INFO     cocotb.axi_pim.s_axi               Reset asserted
   230.01ns INFO     cocotb.axi_pim.s_axi               Reset asserted
   230.01ns INFO     cocotb.axi_pim.s_axi               Reset asserted
   230.01ns INFO     cocotb.axi_pim.s_axi               Reset asserted
   230.01ns INFO     cocotb.axi_pim.s_axi               Reset asserted
   230.01ns INFO     cocotb.axi_pim.s_axi               Reset asserted
   250.01ns INFO     cocotb.axi_pim.s_axi               Reset de-asserted
   250.01ns INFO     cocotb.axi_pim.s_axi               Reset de-asserted
   250.01ns INFO     cocotb.axi_pim.s_axi               Reset de-asserted
   250.01ns INFO     cocotb.axi_pim.s_axi               Reset de-asserted
   250.01ns INFO     cocotb.axi_pim.s_axi               Reset de-asserted
   250.01ns INFO     cocotb.axi_pim.s_axi               Reset de-asserted
   250.01ns INFO     cocotb.axi_pim.s_axi               Reset de-asserted
   270.01ns INFO     cocotb.tb                          length 1, offset 4, size 2
   270.01ns INFO     cocotb.regression                  run_test_write_007 failed
                                                        Traceback (most recent call last):
                                                          File "/home/jueun/.local/lib/python3.10/site-packages/cocotb/regression.py", line 732, in _my_test
                                                            await function(dut, *args, **kwargs)
                                                          File "/home/jueun/park/PIM_Model/AXI/verilog-axi-master/tb/axi_pim/test_axi_pim.py", line 97, in run_test_write
                                                            await tb.axi_master.write(addr-4, b'\xaa'*(length+8))
                                                          File "/home/jueun/.local/lib/python3.10/site-packages/cocotbext/axi/axi_master.py", line 1071, in write
                                                            return await self.write_if.write(address, data, awid,
                                                          File "/home/jueun/.local/lib/python3.10/site-packages/cocotbext/axi/axi_master.py", line 358, in write
                                                            raise ValueError("Address out of range")
                                                        ValueError: Address out of range
   270.01ns INFO     cocotb.regression                  running run_test_write_008 (8/25)
                                                          Automatically generated test
                                                          
                                                          idle_inserter: cycle_pause (No docstring supplied)
                                                          backpressure_inserter: None
                                                          size: 0
   270.01ns INFO     cocotb.axi_pim.s_axi               AXI master (write)
   270.01ns INFO     cocotb.axi_pim.s_axi               cocotbext-axi version 0.1.24
   270.01ns INFO     cocotb.axi_pim.s_axi               Copyright (c) 2020 Alex Forencich
   270.01ns INFO     cocotb.axi_pim.s_axi               https://github.com/alexforencich/cocotbext-axi
   270.01ns INFO     cocotb.axi_pim.s_axi               Reset de-asserted
   270.01ns INFO     cocotb.axi_pim.s_axi               Reset de-asserted
   270.01ns INFO     cocotb.axi_pim.s_axi               Reset de-asserted
   270.01ns INFO     cocotb.axi_pim.s_axi               AXI master configuration:
   270.01ns INFO     cocotb.axi_pim.s_axi                 Address width: 8 bits
   270.01ns INFO     cocotb.axi_pim.s_axi                 ID width: 8 bits
   270.01ns INFO     cocotb.axi_pim.s_axi                 Byte size: 8 bits
   270.01ns INFO     cocotb.axi_pim.s_axi                 Data width: 32 bits (4 bytes)
   270.01ns INFO     cocotb.axi_pim.s_axi                 Max burst size: 2 (4 bytes)
   270.01ns INFO     cocotb.axi_pim.s_axi                 Max burst length: 256 cycles (1024 bytes)
   270.01ns INFO     cocotb.axi_pim.s_axi               AXI master signals:
   270.01ns INFO     cocotb.axi_pim.s_axi                 awaddr width: 8 bits
   270.01ns INFO     cocotb.axi_pim.s_axi                 awburst width: 2 bits
   270.01ns INFO     cocotb.axi_pim.s_axi                 awcache width: 4 bits
   270.01ns INFO     cocotb.axi_pim.s_axi                 awid width: 8 bits
   270.01ns INFO     cocotb.axi_pim.s_axi                 awlen width: 8 bits
   270.01ns INFO     cocotb.axi_pim.s_axi                 awlock width: 1 bits
   270.01ns INFO     cocotb.axi_pim.s_axi                 awprot width: 3 bits
   270.01ns INFO     cocotb.axi_pim.s_axi                 awqos: not present
   270.01ns INFO     cocotb.axi_pim.s_axi                 awready width: 1 bits
   270.01ns INFO     cocotb.axi_pim.s_axi                 awregion: not present
   270.01ns INFO     cocotb.axi_pim.s_axi                 awsize width: 3 bits
   270.01ns INFO     cocotb.axi_pim.s_axi                 awuser: not present
   270.01ns INFO     cocotb.axi_pim.s_axi                 awvalid width: 1 bits
   270.01ns INFO     cocotb.axi_pim.s_axi                 wdata width: 32 bits
   270.01ns INFO     cocotb.axi_pim.s_axi                 wlast width: 1 bits
   270.01ns INFO     cocotb.axi_pim.s_axi                 wready width: 1 bits
   270.01ns INFO     cocotb.axi_pim.s_axi                 wstrb width: 4 bits
   270.01ns INFO     cocotb.axi_pim.s_axi                 wuser: not present
   270.01ns INFO     cocotb.axi_pim.s_axi                 wvalid width: 1 bits
   270.01ns INFO     cocotb.axi_pim.s_axi                 bid width: 8 bits
   270.01ns INFO     cocotb.axi_pim.s_axi                 bready width: 1 bits
   270.01ns INFO     cocotb.axi_pim.s_axi                 bresp width: 2 bits
   270.01ns INFO     cocotb.axi_pim.s_axi                 buser: not present
   270.01ns INFO     cocotb.axi_pim.s_axi                 bvalid width: 1 bits
   270.01ns INFO     cocotb.axi_pim.s_axi               Reset de-asserted
   270.01ns INFO     cocotb.axi_pim.s_axi               AXI master (read)
   270.01ns INFO     cocotb.axi_pim.s_axi               cocotbext-axi version 0.1.24
   270.01ns INFO     cocotb.axi_pim.s_axi               Copyright (c) 2020 Alex Forencich
   270.01ns INFO     cocotb.axi_pim.s_axi               https://github.com/alexforencich/cocotbext-axi
   270.01ns INFO     cocotb.axi_pim.s_axi               Reset de-asserted
   270.01ns INFO     cocotb.axi_pim.s_axi               Reset de-asserted
   270.01ns INFO     cocotb.axi_pim.s_axi               AXI master configuration:
   270.01ns INFO     cocotb.axi_pim.s_axi                 Address width: 8 bits
   270.01ns INFO     cocotb.axi_pim.s_axi                 ID width: 8 bits
   270.01ns INFO     cocotb.axi_pim.s_axi                 Byte size: 8 bits
   270.01ns INFO     cocotb.axi_pim.s_axi                 Data width: 32 bits (4 bytes)
   270.01ns INFO     cocotb.axi_pim.s_axi                 Max burst size: 2 (4 bytes)
   270.01ns INFO     cocotb.axi_pim.s_axi                 Max burst length: 256 cycles (1024 bytes)
   270.01ns INFO     cocotb.axi_pim.s_axi               AXI master signals:
   270.01ns INFO     cocotb.axi_pim.s_axi                 araddr width: 8 bits
   270.01ns INFO     cocotb.axi_pim.s_axi                 arburst width: 2 bits
   270.01ns INFO     cocotb.axi_pim.s_axi                 arcache width: 4 bits
   270.01ns INFO     cocotb.axi_pim.s_axi                 arid width: 8 bits
   270.01ns INFO     cocotb.axi_pim.s_axi                 arlen width: 8 bits
   270.01ns INFO     cocotb.axi_pim.s_axi                 arlock width: 1 bits
   270.01ns INFO     cocotb.axi_pim.s_axi                 arprot width: 3 bits
   270.01ns INFO     cocotb.axi_pim.s_axi                 arqos: not present
   270.01ns INFO     cocotb.axi_pim.s_axi                 arready width: 1 bits
   270.01ns INFO     cocotb.axi_pim.s_axi                 arregion: not present
   270.01ns INFO     cocotb.axi_pim.s_axi                 arsize width: 3 bits
   270.01ns INFO     cocotb.axi_pim.s_axi                 aruser: not present
   270.01ns INFO     cocotb.axi_pim.s_axi                 arvalid width: 1 bits
   270.01ns INFO     cocotb.axi_pim.s_axi                 rdata width: 32 bits
   270.01ns INFO     cocotb.axi_pim.s_axi                 rid width: 8 bits
   270.01ns INFO     cocotb.axi_pim.s_axi                 rlast width: 1 bits
   270.01ns INFO     cocotb.axi_pim.s_axi                 rready width: 1 bits
   270.01ns INFO     cocotb.axi_pim.s_axi                 rresp width: 2 bits
   270.01ns INFO     cocotb.axi_pim.s_axi                 ruser: not present
   270.01ns INFO     cocotb.axi_pim.s_axi                 rvalid width: 1 bits
   270.01ns INFO     cocotb.axi_pim.s_axi               Reset de-asserted
   270.01ns INFO     cocotb.axi_pim.s_axi               Reset asserted
   270.01ns INFO     cocotb.axi_pim.s_axi               Reset asserted
   270.01ns INFO     cocotb.axi_pim.s_axi               Reset asserted
   270.01ns INFO     cocotb.axi_pim.s_axi               Reset asserted
   270.01ns INFO     cocotb.axi_pim.s_axi               Reset asserted
   270.01ns INFO     cocotb.axi_pim.s_axi               Reset asserted
   270.01ns INFO     cocotb.axi_pim.s_axi               Reset asserted
   290.01ns INFO     cocotb.axi_pim.s_axi               Reset de-asserted
   290.01ns INFO     cocotb.axi_pim.s_axi               Reset de-asserted
   290.01ns INFO     cocotb.axi_pim.s_axi               Reset de-asserted
   290.01ns INFO     cocotb.axi_pim.s_axi               Reset de-asserted
   290.01ns INFO     cocotb.axi_pim.s_axi               Reset de-asserted
   290.01ns INFO     cocotb.axi_pim.s_axi               Reset de-asserted
   290.01ns INFO     cocotb.axi_pim.s_axi               Reset de-asserted
   310.01ns INFO     cocotb.tb                          length 1, offset 4, size 0
   310.01ns INFO     cocotb.regression                  run_test_write_008 failed
                                                        Traceback (most recent call last):
                                                          File "/home/jueun/.local/lib/python3.10/site-packages/cocotb/regression.py", line 732, in _my_test
                                                            await function(dut, *args, **kwargs)
                                                          File "/home/jueun/park/PIM_Model/AXI/verilog-axi-master/tb/axi_pim/test_axi_pim.py", line 97, in run_test_write
                                                            await tb.axi_master.write(addr-4, b'\xaa'*(length+8))
                                                          File "/home/jueun/.local/lib/python3.10/site-packages/cocotbext/axi/axi_master.py", line 1071, in write
                                                            return await self.write_if.write(address, data, awid,
                                                          File "/home/jueun/.local/lib/python3.10/site-packages/cocotbext/axi/axi_master.py", line 358, in write
                                                            raise ValueError("Address out of range")
                                                        ValueError: Address out of range
   310.01ns INFO     cocotb.regression                  running run_test_write_009 (9/25)
                                                          Automatically generated test
                                                          
                                                          idle_inserter: cycle_pause (No docstring supplied)
                                                          backpressure_inserter: None
                                                          size: 1
   310.01ns INFO     cocotb.axi_pim.s_axi               AXI master (write)
   310.01ns INFO     cocotb.axi_pim.s_axi               cocotbext-axi version 0.1.24
   310.01ns INFO     cocotb.axi_pim.s_axi               Copyright (c) 2020 Alex Forencich
   310.01ns INFO     cocotb.axi_pim.s_axi               https://github.com/alexforencich/cocotbext-axi
   310.01ns INFO     cocotb.axi_pim.s_axi               Reset de-asserted
   310.01ns INFO     cocotb.axi_pim.s_axi               Reset de-asserted
   310.01ns INFO     cocotb.axi_pim.s_axi               Reset de-asserted
   310.01ns INFO     cocotb.axi_pim.s_axi               AXI master configuration:
   310.01ns INFO     cocotb.axi_pim.s_axi                 Address width: 8 bits
   310.01ns INFO     cocotb.axi_pim.s_axi                 ID width: 8 bits
   310.01ns INFO     cocotb.axi_pim.s_axi                 Byte size: 8 bits
   310.01ns INFO     cocotb.axi_pim.s_axi                 Data width: 32 bits (4 bytes)
   310.01ns INFO     cocotb.axi_pim.s_axi                 Max burst size: 2 (4 bytes)
   310.01ns INFO     cocotb.axi_pim.s_axi                 Max burst length: 256 cycles (1024 bytes)
   310.01ns INFO     cocotb.axi_pim.s_axi               AXI master signals:
   310.01ns INFO     cocotb.axi_pim.s_axi                 awaddr width: 8 bits
   310.01ns INFO     cocotb.axi_pim.s_axi                 awburst width: 2 bits
   310.01ns INFO     cocotb.axi_pim.s_axi                 awcache width: 4 bits
   310.01ns INFO     cocotb.axi_pim.s_axi                 awid width: 8 bits
   310.01ns INFO     cocotb.axi_pim.s_axi                 awlen width: 8 bits
   310.01ns INFO     cocotb.axi_pim.s_axi                 awlock width: 1 bits
   310.01ns INFO     cocotb.axi_pim.s_axi                 awprot width: 3 bits
   310.01ns INFO     cocotb.axi_pim.s_axi                 awqos: not present
   310.01ns INFO     cocotb.axi_pim.s_axi                 awready width: 1 bits
   310.01ns INFO     cocotb.axi_pim.s_axi                 awregion: not present
   310.01ns INFO     cocotb.axi_pim.s_axi                 awsize width: 3 bits
   310.01ns INFO     cocotb.axi_pim.s_axi                 awuser: not present
   310.01ns INFO     cocotb.axi_pim.s_axi                 awvalid width: 1 bits
   310.01ns INFO     cocotb.axi_pim.s_axi                 wdata width: 32 bits
   310.01ns INFO     cocotb.axi_pim.s_axi                 wlast width: 1 bits
   310.01ns INFO     cocotb.axi_pim.s_axi                 wready width: 1 bits
   310.01ns INFO     cocotb.axi_pim.s_axi                 wstrb width: 4 bits
   310.01ns INFO     cocotb.axi_pim.s_axi                 wuser: not present
   310.01ns INFO     cocotb.axi_pim.s_axi                 wvalid width: 1 bits
   310.01ns INFO     cocotb.axi_pim.s_axi                 bid width: 8 bits
   310.01ns INFO     cocotb.axi_pim.s_axi                 bready width: 1 bits
   310.01ns INFO     cocotb.axi_pim.s_axi                 bresp width: 2 bits
   310.01ns INFO     cocotb.axi_pim.s_axi                 buser: not present
   310.01ns INFO     cocotb.axi_pim.s_axi                 bvalid width: 1 bits
   310.01ns INFO     cocotb.axi_pim.s_axi               Reset de-asserted
   310.01ns INFO     cocotb.axi_pim.s_axi               AXI master (read)
   310.01ns INFO     cocotb.axi_pim.s_axi               cocotbext-axi version 0.1.24
   310.01ns INFO     cocotb.axi_pim.s_axi               Copyright (c) 2020 Alex Forencich
   310.01ns INFO     cocotb.axi_pim.s_axi               https://github.com/alexforencich/cocotbext-axi
   310.01ns INFO     cocotb.axi_pim.s_axi               Reset de-asserted
   310.01ns INFO     cocotb.axi_pim.s_axi               Reset de-asserted
   310.01ns INFO     cocotb.axi_pim.s_axi               AXI master configuration:
   310.01ns INFO     cocotb.axi_pim.s_axi                 Address width: 8 bits
   310.01ns INFO     cocotb.axi_pim.s_axi                 ID width: 8 bits
   310.01ns INFO     cocotb.axi_pim.s_axi                 Byte size: 8 bits
   310.01ns INFO     cocotb.axi_pim.s_axi                 Data width: 32 bits (4 bytes)
   310.01ns INFO     cocotb.axi_pim.s_axi                 Max burst size: 2 (4 bytes)
   310.01ns INFO     cocotb.axi_pim.s_axi                 Max burst length: 256 cycles (1024 bytes)
   310.01ns INFO     cocotb.axi_pim.s_axi               AXI master signals:
   310.01ns INFO     cocotb.axi_pim.s_axi                 araddr width: 8 bits
   310.01ns INFO     cocotb.axi_pim.s_axi                 arburst width: 2 bits
   310.01ns INFO     cocotb.axi_pim.s_axi                 arcache width: 4 bits
   310.01ns INFO     cocotb.axi_pim.s_axi                 arid width: 8 bits
   310.01ns INFO     cocotb.axi_pim.s_axi                 arlen width: 8 bits
   310.01ns INFO     cocotb.axi_pim.s_axi                 arlock width: 1 bits
   310.01ns INFO     cocotb.axi_pim.s_axi                 arprot width: 3 bits
   310.01ns INFO     cocotb.axi_pim.s_axi                 arqos: not present
   310.01ns INFO     cocotb.axi_pim.s_axi                 arready width: 1 bits
   310.01ns INFO     cocotb.axi_pim.s_axi                 arregion: not present
   310.01ns INFO     cocotb.axi_pim.s_axi                 arsize width: 3 bits
   310.01ns INFO     cocotb.axi_pim.s_axi                 aruser: not present
   310.01ns INFO     cocotb.axi_pim.s_axi                 arvalid width: 1 bits
   310.01ns INFO     cocotb.axi_pim.s_axi                 rdata width: 32 bits
   310.01ns INFO     cocotb.axi_pim.s_axi                 rid width: 8 bits
   310.01ns INFO     cocotb.axi_pim.s_axi                 rlast width: 1 bits
   310.01ns INFO     cocotb.axi_pim.s_axi                 rready width: 1 bits
   310.01ns INFO     cocotb.axi_pim.s_axi                 rresp width: 2 bits
   310.01ns INFO     cocotb.axi_pim.s_axi                 ruser: not present
   310.01ns INFO     cocotb.axi_pim.s_axi                 rvalid width: 1 bits
   310.01ns INFO     cocotb.axi_pim.s_axi               Reset de-asserted
   310.01ns INFO     cocotb.axi_pim.s_axi               Reset asserted
   310.01ns INFO     cocotb.axi_pim.s_axi               Reset asserted
   310.01ns INFO     cocotb.axi_pim.s_axi               Reset asserted
   310.01ns INFO     cocotb.axi_pim.s_axi               Reset asserted
   310.01ns INFO     cocotb.axi_pim.s_axi               Reset asserted
   310.01ns INFO     cocotb.axi_pim.s_axi               Reset asserted
   310.01ns INFO     cocotb.axi_pim.s_axi               Reset asserted
   330.01ns INFO     cocotb.axi_pim.s_axi               Reset de-asserted
   330.01ns INFO     cocotb.axi_pim.s_axi               Reset de-asserted
   330.01ns INFO     cocotb.axi_pim.s_axi               Reset de-asserted
   330.01ns INFO     cocotb.axi_pim.s_axi               Reset de-asserted
   330.01ns INFO     cocotb.axi_pim.s_axi               Reset de-asserted
   330.01ns INFO     cocotb.axi_pim.s_axi               Reset de-asserted
   330.01ns INFO     cocotb.axi_pim.s_axi               Reset de-asserted
   350.01ns INFO     cocotb.tb                          length 1, offset 4, size 1
   350.01ns INFO     cocotb.regression                  run_test_write_009 failed
                                                        Traceback (most recent call last):
                                                          File "/home/jueun/.local/lib/python3.10/site-packages/cocotb/regression.py", line 732, in _my_test
                                                            await function(dut, *args, **kwargs)
                                                          File "/home/jueun/park/PIM_Model/AXI/verilog-axi-master/tb/axi_pim/test_axi_pim.py", line 97, in run_test_write
                                                            await tb.axi_master.write(addr-4, b'\xaa'*(length+8))
                                                          File "/home/jueun/.local/lib/python3.10/site-packages/cocotbext/axi/axi_master.py", line 1071, in write
                                                            return await self.write_if.write(address, data, awid,
                                                          File "/home/jueun/.local/lib/python3.10/site-packages/cocotbext/axi/axi_master.py", line 358, in write
                                                            raise ValueError("Address out of range")
                                                        ValueError: Address out of range
   350.01ns INFO     cocotb.regression                  running run_test_write_010 (10/25)
                                                          Automatically generated test
                                                          
                                                          idle_inserter: cycle_pause (No docstring supplied)
                                                          backpressure_inserter: cycle_pause (No docstring supplied)
                                                          size: None
   350.01ns INFO     cocotb.axi_pim.s_axi               AXI master (write)
   350.01ns INFO     cocotb.axi_pim.s_axi               cocotbext-axi version 0.1.24
   350.01ns INFO     cocotb.axi_pim.s_axi               Copyright (c) 2020 Alex Forencich
   350.01ns INFO     cocotb.axi_pim.s_axi               https://github.com/alexforencich/cocotbext-axi
   350.01ns INFO     cocotb.axi_pim.s_axi               Reset de-asserted
   350.01ns INFO     cocotb.axi_pim.s_axi               Reset de-asserted
   350.01ns INFO     cocotb.axi_pim.s_axi               Reset de-asserted
   350.01ns INFO     cocotb.axi_pim.s_axi               AXI master configuration:
   350.01ns INFO     cocotb.axi_pim.s_axi                 Address width: 8 bits
   350.01ns INFO     cocotb.axi_pim.s_axi                 ID width: 8 bits
   350.01ns INFO     cocotb.axi_pim.s_axi                 Byte size: 8 bits
   350.01ns INFO     cocotb.axi_pim.s_axi                 Data width: 32 bits (4 bytes)
   350.01ns INFO     cocotb.axi_pim.s_axi                 Max burst size: 2 (4 bytes)
   350.01ns INFO     cocotb.axi_pim.s_axi                 Max burst length: 256 cycles (1024 bytes)
   350.01ns INFO     cocotb.axi_pim.s_axi               AXI master signals:
   350.01ns INFO     cocotb.axi_pim.s_axi                 awaddr width: 8 bits
   350.01ns INFO     cocotb.axi_pim.s_axi                 awburst width: 2 bits
   350.01ns INFO     cocotb.axi_pim.s_axi                 awcache width: 4 bits
   350.01ns INFO     cocotb.axi_pim.s_axi                 awid width: 8 bits
   350.01ns INFO     cocotb.axi_pim.s_axi                 awlen width: 8 bits
   350.01ns INFO     cocotb.axi_pim.s_axi                 awlock width: 1 bits
   350.01ns INFO     cocotb.axi_pim.s_axi                 awprot width: 3 bits
   350.01ns INFO     cocotb.axi_pim.s_axi                 awqos: not present
   350.01ns INFO     cocotb.axi_pim.s_axi                 awready width: 1 bits
   350.01ns INFO     cocotb.axi_pim.s_axi                 awregion: not present
   350.01ns INFO     cocotb.axi_pim.s_axi                 awsize width: 3 bits
   350.01ns INFO     cocotb.axi_pim.s_axi                 awuser: not present
   350.01ns INFO     cocotb.axi_pim.s_axi                 awvalid width: 1 bits
   350.01ns INFO     cocotb.axi_pim.s_axi                 wdata width: 32 bits
   350.01ns INFO     cocotb.axi_pim.s_axi                 wlast width: 1 bits
   350.01ns INFO     cocotb.axi_pim.s_axi                 wready width: 1 bits
   350.01ns INFO     cocotb.axi_pim.s_axi                 wstrb width: 4 bits
   350.01ns INFO     cocotb.axi_pim.s_axi                 wuser: not present
   350.01ns INFO     cocotb.axi_pim.s_axi                 wvalid width: 1 bits
   350.01ns INFO     cocotb.axi_pim.s_axi                 bid width: 8 bits
   350.01ns INFO     cocotb.axi_pim.s_axi                 bready width: 1 bits
   350.01ns INFO     cocotb.axi_pim.s_axi                 bresp width: 2 bits
   350.01ns INFO     cocotb.axi_pim.s_axi                 buser: not present
   350.01ns INFO     cocotb.axi_pim.s_axi                 bvalid width: 1 bits
   350.01ns INFO     cocotb.axi_pim.s_axi               Reset de-asserted
   350.01ns INFO     cocotb.axi_pim.s_axi               AXI master (read)
   350.01ns INFO     cocotb.axi_pim.s_axi               cocotbext-axi version 0.1.24
   350.01ns INFO     cocotb.axi_pim.s_axi               Copyright (c) 2020 Alex Forencich
   350.01ns INFO     cocotb.axi_pim.s_axi               https://github.com/alexforencich/cocotbext-axi
   350.01ns INFO     cocotb.axi_pim.s_axi               Reset de-asserted
   350.01ns INFO     cocotb.axi_pim.s_axi               Reset de-asserted
   350.01ns INFO     cocotb.axi_pim.s_axi               AXI master configuration:
   350.01ns INFO     cocotb.axi_pim.s_axi                 Address width: 8 bits
   350.01ns INFO     cocotb.axi_pim.s_axi                 ID width: 8 bits
   350.01ns INFO     cocotb.axi_pim.s_axi                 Byte size: 8 bits
   350.01ns INFO     cocotb.axi_pim.s_axi                 Data width: 32 bits (4 bytes)
   350.01ns INFO     cocotb.axi_pim.s_axi                 Max burst size: 2 (4 bytes)
   350.01ns INFO     cocotb.axi_pim.s_axi                 Max burst length: 256 cycles (1024 bytes)
   350.01ns INFO     cocotb.axi_pim.s_axi               AXI master signals:
   350.01ns INFO     cocotb.axi_pim.s_axi                 araddr width: 8 bits
   350.01ns INFO     cocotb.axi_pim.s_axi                 arburst width: 2 bits
   350.01ns INFO     cocotb.axi_pim.s_axi                 arcache width: 4 bits
   350.01ns INFO     cocotb.axi_pim.s_axi                 arid width: 8 bits
   350.01ns INFO     cocotb.axi_pim.s_axi                 arlen width: 8 bits
   350.01ns INFO     cocotb.axi_pim.s_axi                 arlock width: 1 bits
   350.01ns INFO     cocotb.axi_pim.s_axi                 arprot width: 3 bits
   350.01ns INFO     cocotb.axi_pim.s_axi                 arqos: not present
   350.01ns INFO     cocotb.axi_pim.s_axi                 arready width: 1 bits
   350.01ns INFO     cocotb.axi_pim.s_axi                 arregion: not present
   350.01ns INFO     cocotb.axi_pim.s_axi                 arsize width: 3 bits
   350.01ns INFO     cocotb.axi_pim.s_axi                 aruser: not present
   350.01ns INFO     cocotb.axi_pim.s_axi                 arvalid width: 1 bits
   350.01ns INFO     cocotb.axi_pim.s_axi                 rdata width: 32 bits
   350.01ns INFO     cocotb.axi_pim.s_axi                 rid width: 8 bits
   350.01ns INFO     cocotb.axi_pim.s_axi                 rlast width: 1 bits
   350.01ns INFO     cocotb.axi_pim.s_axi                 rready width: 1 bits
   350.01ns INFO     cocotb.axi_pim.s_axi                 rresp width: 2 bits
   350.01ns INFO     cocotb.axi_pim.s_axi                 ruser: not present
   350.01ns INFO     cocotb.axi_pim.s_axi                 rvalid width: 1 bits
   350.01ns INFO     cocotb.axi_pim.s_axi               Reset de-asserted
   350.01ns INFO     cocotb.axi_pim.s_axi               Reset asserted
   350.01ns INFO     cocotb.axi_pim.s_axi               Reset asserted
   350.01ns INFO     cocotb.axi_pim.s_axi               Reset asserted
   350.01ns INFO     cocotb.axi_pim.s_axi               Reset asserted
   350.01ns INFO     cocotb.axi_pim.s_axi               Reset asserted
   350.01ns INFO     cocotb.axi_pim.s_axi               Reset asserted
   350.01ns INFO     cocotb.axi_pim.s_axi               Reset asserted
   370.01ns INFO     cocotb.axi_pim.s_axi               Reset de-asserted
   370.01ns INFO     cocotb.axi_pim.s_axi               Reset de-asserted
   370.01ns INFO     cocotb.axi_pim.s_axi               Reset de-asserted
   370.01ns INFO     cocotb.axi_pim.s_axi               Reset de-asserted
   370.01ns INFO     cocotb.axi_pim.s_axi               Reset de-asserted
   370.01ns INFO     cocotb.axi_pim.s_axi               Reset de-asserted
   370.01ns INFO     cocotb.axi_pim.s_axi               Reset de-asserted
   390.01ns INFO     cocotb.tb                          length 1, offset 4, size 2
   390.01ns INFO     cocotb.regression                  run_test_write_010 failed
                                                        Traceback (most recent call last):
                                                          File "/home/jueun/.local/lib/python3.10/site-packages/cocotb/regression.py", line 732, in _my_test
                                                            await function(dut, *args, **kwargs)
                                                          File "/home/jueun/park/PIM_Model/AXI/verilog-axi-master/tb/axi_pim/test_axi_pim.py", line 97, in run_test_write
                                                            await tb.axi_master.write(addr-4, b'\xaa'*(length+8))
                                                          File "/home/jueun/.local/lib/python3.10/site-packages/cocotbext/axi/axi_master.py", line 1071, in write
                                                            return await self.write_if.write(address, data, awid,
                                                          File "/home/jueun/.local/lib/python3.10/site-packages/cocotbext/axi/axi_master.py", line 358, in write
                                                            raise ValueError("Address out of range")
                                                        ValueError: Address out of range
   390.01ns INFO     cocotb.regression                  running run_test_write_011 (11/25)
                                                          Automatically generated test
                                                          
                                                          idle_inserter: cycle_pause (No docstring supplied)
                                                          backpressure_inserter: cycle_pause (No docstring supplied)
                                                          size: 0
   390.01ns INFO     cocotb.axi_pim.s_axi               AXI master (write)
   390.01ns INFO     cocotb.axi_pim.s_axi               cocotbext-axi version 0.1.24
   390.01ns INFO     cocotb.axi_pim.s_axi               Copyright (c) 2020 Alex Forencich
   390.01ns INFO     cocotb.axi_pim.s_axi               https://github.com/alexforencich/cocotbext-axi
   390.01ns INFO     cocotb.axi_pim.s_axi               Reset de-asserted
   390.01ns INFO     cocotb.axi_pim.s_axi               Reset de-asserted
   390.01ns INFO     cocotb.axi_pim.s_axi               Reset de-asserted
   390.01ns INFO     cocotb.axi_pim.s_axi               AXI master configuration:
   390.01ns INFO     cocotb.axi_pim.s_axi                 Address width: 8 bits
   390.01ns INFO     cocotb.axi_pim.s_axi                 ID width: 8 bits
   390.01ns INFO     cocotb.axi_pim.s_axi                 Byte size: 8 bits
   390.01ns INFO     cocotb.axi_pim.s_axi                 Data width: 32 bits (4 bytes)
   390.01ns INFO     cocotb.axi_pim.s_axi                 Max burst size: 2 (4 bytes)
   390.01ns INFO     cocotb.axi_pim.s_axi                 Max burst length: 256 cycles (1024 bytes)
   390.01ns INFO     cocotb.axi_pim.s_axi               AXI master signals:
   390.01ns INFO     cocotb.axi_pim.s_axi                 awaddr width: 8 bits
   390.01ns INFO     cocotb.axi_pim.s_axi                 awburst width: 2 bits
   390.01ns INFO     cocotb.axi_pim.s_axi                 awcache width: 4 bits
   390.01ns INFO     cocotb.axi_pim.s_axi                 awid width: 8 bits
   390.01ns INFO     cocotb.axi_pim.s_axi                 awlen width: 8 bits
   390.01ns INFO     cocotb.axi_pim.s_axi                 awlock width: 1 bits
   390.01ns INFO     cocotb.axi_pim.s_axi                 awprot width: 3 bits
   390.01ns INFO     cocotb.axi_pim.s_axi                 awqos: not present
   390.01ns INFO     cocotb.axi_pim.s_axi                 awready width: 1 bits
   390.01ns INFO     cocotb.axi_pim.s_axi                 awregion: not present
   390.01ns INFO     cocotb.axi_pim.s_axi                 awsize width: 3 bits
   390.01ns INFO     cocotb.axi_pim.s_axi                 awuser: not present
   390.01ns INFO     cocotb.axi_pim.s_axi                 awvalid width: 1 bits
   390.01ns INFO     cocotb.axi_pim.s_axi                 wdata width: 32 bits
   390.01ns INFO     cocotb.axi_pim.s_axi                 wlast width: 1 bits
   390.01ns INFO     cocotb.axi_pim.s_axi                 wready width: 1 bits
   390.01ns INFO     cocotb.axi_pim.s_axi                 wstrb width: 4 bits
   390.01ns INFO     cocotb.axi_pim.s_axi                 wuser: not present
   390.01ns INFO     cocotb.axi_pim.s_axi                 wvalid width: 1 bits
   390.01ns INFO     cocotb.axi_pim.s_axi                 bid width: 8 bits
   390.01ns INFO     cocotb.axi_pim.s_axi                 bready width: 1 bits
   390.01ns INFO     cocotb.axi_pim.s_axi                 bresp width: 2 bits
   390.01ns INFO     cocotb.axi_pim.s_axi                 buser: not present
   390.01ns INFO     cocotb.axi_pim.s_axi                 bvalid width: 1 bits
   390.01ns INFO     cocotb.axi_pim.s_axi               Reset de-asserted
   390.01ns INFO     cocotb.axi_pim.s_axi               AXI master (read)
   390.01ns INFO     cocotb.axi_pim.s_axi               cocotbext-axi version 0.1.24
   390.01ns INFO     cocotb.axi_pim.s_axi               Copyright (c) 2020 Alex Forencich
   390.01ns INFO     cocotb.axi_pim.s_axi               https://github.com/alexforencich/cocotbext-axi
   390.01ns INFO     cocotb.axi_pim.s_axi               Reset de-asserted
   390.01ns INFO     cocotb.axi_pim.s_axi               Reset de-asserted
   390.01ns INFO     cocotb.axi_pim.s_axi               AXI master configuration:
   390.01ns INFO     cocotb.axi_pim.s_axi                 Address width: 8 bits
   390.01ns INFO     cocotb.axi_pim.s_axi                 ID width: 8 bits
   390.01ns INFO     cocotb.axi_pim.s_axi                 Byte size: 8 bits
   390.01ns INFO     cocotb.axi_pim.s_axi                 Data width: 32 bits (4 bytes)
   390.01ns INFO     cocotb.axi_pim.s_axi                 Max burst size: 2 (4 bytes)
   390.01ns INFO     cocotb.axi_pim.s_axi                 Max burst length: 256 cycles (1024 bytes)
   390.01ns INFO     cocotb.axi_pim.s_axi               AXI master signals:
   390.01ns INFO     cocotb.axi_pim.s_axi                 araddr width: 8 bits
   390.01ns INFO     cocotb.axi_pim.s_axi                 arburst width: 2 bits
   390.01ns INFO     cocotb.axi_pim.s_axi                 arcache width: 4 bits
   390.01ns INFO     cocotb.axi_pim.s_axi                 arid width: 8 bits
   390.01ns INFO     cocotb.axi_pim.s_axi                 arlen width: 8 bits
   390.01ns INFO     cocotb.axi_pim.s_axi                 arlock width: 1 bits
   390.01ns INFO     cocotb.axi_pim.s_axi                 arprot width: 3 bits
   390.01ns INFO     cocotb.axi_pim.s_axi                 arqos: not present
   390.01ns INFO     cocotb.axi_pim.s_axi                 arready width: 1 bits
   390.01ns INFO     cocotb.axi_pim.s_axi                 arregion: not present
   390.01ns INFO     cocotb.axi_pim.s_axi                 arsize width: 3 bits
   390.01ns INFO     cocotb.axi_pim.s_axi                 aruser: not present
   390.01ns INFO     cocotb.axi_pim.s_axi                 arvalid width: 1 bits
   390.01ns INFO     cocotb.axi_pim.s_axi                 rdata width: 32 bits
   390.01ns INFO     cocotb.axi_pim.s_axi                 rid width: 8 bits
   390.01ns INFO     cocotb.axi_pim.s_axi                 rlast width: 1 bits
   390.01ns INFO     cocotb.axi_pim.s_axi                 rready width: 1 bits
   390.01ns INFO     cocotb.axi_pim.s_axi                 rresp width: 2 bits
   390.01ns INFO     cocotb.axi_pim.s_axi                 ruser: not present
   390.01ns INFO     cocotb.axi_pim.s_axi                 rvalid width: 1 bits
   390.01ns INFO     cocotb.axi_pim.s_axi               Reset de-asserted
   390.01ns INFO     cocotb.axi_pim.s_axi               Reset asserted
   390.01ns INFO     cocotb.axi_pim.s_axi               Reset asserted
   390.01ns INFO     cocotb.axi_pim.s_axi               Reset asserted
   390.01ns INFO     cocotb.axi_pim.s_axi               Reset asserted
   390.01ns INFO     cocotb.axi_pim.s_axi               Reset asserted
   390.01ns INFO     cocotb.axi_pim.s_axi               Reset asserted
   390.01ns INFO     cocotb.axi_pim.s_axi               Reset asserted
   410.01ns INFO     cocotb.axi_pim.s_axi               Reset de-asserted
